 time       v(/vam)    v(/iam)    v(/vdc)    v(/idc)    v(/vexp)   v(/iexp)   v(/vpulse) v(/ipulse) v(/vpwl)   v(/ipwl)   v(/vsffm)  v(/isffm)  v(/vsin)   v(/isin)  
 0.000e+00  0.000e+00  0.000e+00  2.345e+00 -2.345e+04 -4.000e+00  4.000e+04 -1.000e+00  1.000e+04 -7.000e+00  7.000e+04 -5.000e+00  5.000e+04  0.000e+00  0.000e+00 
 1.000e-09  0.000e+00  0.000e+00  2.345e+00 -2.345e+04 -4.000e+00  4.000e+04 -1.000e+00  1.000e+04 -7.000e+00  7.000e+04 -4.191e+00  4.191e+04  0.000e+00  0.000e+00 
 2.000e-09  0.000e+00  0.000e+00  2.345e+00 -2.345e+04 -4.000e+00  4.000e+04 -1.000e+00  1.000e+04 -7.000e+00  7.000e+04 -4.048e+00  4.048e+04  2.669e-05 -2.669e-01 
 3.000e-09  0.000e+00  0.000e+00  2.345e+00 -2.345e+04 -3.902e+00  3.902e+04 -9.333e-01  9.333e+03 -7.000e+00  7.000e+04 -4.686e+00  4.686e+04  1.960e-09 -1.960e-05 
 4.000e-09  0.000e+00  0.000e+00  2.345e+00 -2.345e+04 -3.807e+00  3.807e+04 -8.667e-01  8.667e+03 -7.000e+00  7.000e+04 -5.577e+00  5.577e+04  8.900e-14 -8.900e-10 
 5.000e-09  0.000e+00  0.000e+00  2.345e+00 -2.345e+04 -3.715e+00  3.715e+04 -8.000e-01  8.000e+03 -7.000e+00  7.000e+04 -6.000e+00  6.000e+04  2.497e-18 -2.497e-14 
 6.000e-09  0.000e+00  0.000e+00  2.345e+00 -2.345e+04 -3.626e+00  3.626e+04 -7.333e-01  7.333e+03 -7.000e+00  7.000e+04 -5.623e+00  5.623e+04 -1.881e-37 -1.541e-33 
 7.000e-09  0.000e+00  0.000e+00  2.345e+00 -2.345e+04 -3.539e+00  3.539e+04 -6.667e-01  6.667e+03 -7.000e+00  7.000e+04 -4.758e+00  4.758e+04 -5.147e-27  5.147e-23 
 8.000e-09  0.000e+00  0.000e+00  2.345e+00 -2.345e+04 -3.456e+00  3.456e+04 -6.000e-01  6.000e+03 -7.000e+00  7.000e+04 -4.086e+00  4.086e+04 -3.781e-31  3.781e-27 
 9.000e-09  0.000e+00  0.000e+00  2.345e+00 -2.345e+04 -3.376e+00  3.376e+04 -5.333e-01  5.333e+03 -7.000e+00  7.000e+04 -4.113e+00  4.113e+04 -1.717e-35  1.717e-31 
 1.000e-08  0.000e+00  0.000e+00  2.345e+00 -2.345e+04 -3.298e+00  3.298e+04 -4.667e-01  4.667e+03 -7.000e+00  7.000e+04 -4.799e+00  4.799e+04 -4.816e-40  4.816e-36 
 1.100e-08  0.000e+00  0.000e+00  2.345e+00 -2.345e+04 -3.222e+00  3.222e+04 -4.000e-01  4.000e+03 -7.000e+00  7.000e+04 -5.624e+00  5.624e+04  3.983e-59  0.000e+00 
 1.200e-08  0.000e+00  0.000e+00  2.345e+00 -2.345e+04 -3.150e+00  3.150e+04 -3.333e-01  3.333e+03 -7.000e+00  7.000e+04 -5.999e+00  5.999e+04  9.927e-49 -9.927e-45 
 1.300e-08  0.000e+00  0.000e+00  2.345e+00 -2.345e+04 -3.079e+00  3.079e+04 -2.667e-01  2.667e+03 -7.000e+00  7.000e+04 -5.684e+00  5.684e+04  7.292e-53 -7.292e-49 
 1.400e-08  0.000e+00  0.000e+00  2.345e+00 -2.345e+04 -3.011e+00  3.011e+04 -2.000e-01  2.000e+03 -7.000e+00  7.000e+04 -4.917e+00  4.917e+04  3.311e-57 -3.311e-53 
 1.500e-08  0.000e+00  0.000e+00  2.345e+00 -2.345e+04 -2.945e+00  2.945e+04 -1.333e-01  1.333e+03 -7.000e+00  7.000e+04 -4.215e+00  4.215e+04  9.289e-62 -9.289e-58 
 1.600e-08  0.000e+00  0.000e+00  2.345e+00 -2.345e+04 -2.881e+00  2.881e+04 -6.667e-02  6.667e+02 -7.000e+00  7.000e+04 -4.009e+00  4.009e+04 -8.434e-81  2.073e-76 
 1.700e-08  0.000e+00  0.000e+00  2.345e+00 -2.345e+04 -2.820e+00  2.820e+04  0.000e+00 -1.819e-12 -7.000e+00  7.000e+04 -4.399e+00  4.399e+04 -1.915e-70  1.915e-66 
 1.800e-08  0.000e+00  0.000e+00  2.345e+00 -2.345e+04 -2.760e+00  2.760e+04  6.667e-02 -6.667e+02 -7.000e+00  7.000e+04 -5.126e+00  5.126e+04 -1.407e-74  1.407e-70 
 1.900e-08  0.000e+00  0.000e+00  2.345e+00 -2.345e+04 -2.702e+00  2.702e+04  1.333e-01 -1.333e+03 -7.000e+00  7.000e+04 -5.770e+00  5.770e+04 -6.386e-79  6.386e-75 
 2.000e-08  0.000e+00  0.000e+00  2.345e+00 -2.345e+04 -2.646e+00  2.646e+04  2.000e-01 -2.000e+03 -7.000e+00  7.000e+04 -5.999e+00  5.999e+04 -1.792e-83  1.792e-79 
 2.100e-08  1.642e-01 -1.642e+03  2.345e+00 -2.345e+04 -2.592e+00  2.592e+04  2.667e-01 -2.667e+03 -7.000e+00  7.000e+04 -5.726e+00  5.726e+04 -2.857e-101  0.000e+00 
 2.200e-08  3.307e-01 -3.307e+03  2.345e+00 -2.345e+04 -2.540e+00  2.540e+04  3.333e-01 -3.333e+03 -7.000e+00  7.000e+04 -5.115e+00  5.115e+04  3.693e-92 -3.693e-88 
 2.300e-08  4.803e-01 -4.803e+03  2.345e+00 -2.345e+04 -2.490e+00  2.490e+04  4.000e-01 -4.000e+03 -7.000e+00  7.000e+04 -4.467e+00  4.467e+04  2.713e-96 -2.713e-92 
 2.400e-08  5.938e-01 -5.938e+03  2.345e+00 -2.345e+04 -2.441e+00  2.441e+04  4.667e-01 -4.667e+03 -7.000e+00  7.000e+04 -4.061e+00  4.061e+04  1.232e-100 -1.232e-96 
 2.500e-08  6.545e-01 -6.545e+03  2.345e+00 -2.345e+04 -2.394e+00  2.394e+04  5.333e-01 -5.333e+03 -7.000e+00  7.000e+04 -4.041e+00  4.041e+04  3.456e-105 -3.456e-101 
 2.600e-08  6.506e-01 -6.506e+03  2.345e+00 -2.345e+04 -2.348e+00  2.348e+04  6.000e-01 -6.000e+03 -7.000e+00  7.000e+04 -4.383e+00  4.383e+04  9.076e-123 -9.914e-119 
 2.700e-08  5.767e-01 -5.767e+03  2.345e+00 -2.345e+04 -2.304e+00  2.304e+04  6.667e-01 -6.667e+03 -7.000e+00  7.000e+04 -4.934e+00  4.934e+04 -7.123e-114  7.123e-110 
 2.800e-08  4.355e-01 -4.355e+03  2.345e+00 -2.345e+04 -2.261e+00  2.261e+04  7.333e-01 -7.333e+03 -7.000e+00  7.000e+04 -5.491e+00  5.491e+04 -5.232e-118  5.232e-114 
 2.900e-08  2.373e-01 -2.373e+03  2.345e+00 -2.345e+04 -2.220e+00  2.220e+04  8.000e-01 -8.000e+03 -7.000e+00  7.000e+04 -5.879e+00  5.879e+04 -2.375e-122  2.375e-118 
 3.000e-08  2.665e-15 -2.910e-11  2.345e+00 -2.345e+04 -2.180e+00  2.180e+04  8.667e-01 -8.667e+03 -7.000e+00  7.000e+04 -5.999e+00  5.999e+04 -6.665e-127  6.665e-123 
 3.100e-08 -2.530e-01  2.530e+03  2.345e+00 -2.345e+04 -2.141e+00  2.141e+04  9.333e-01 -9.333e+03 -7.000e+00  7.000e+04 -5.845e+00  5.845e+04 -1.281e-144  2.099e-140 
 3.200e-08 -4.951e-01  4.951e+03  2.345e+00 -2.345e+04 -2.104e+00  2.104e+04  1.000e+00 -1.000e+04 -7.000e+00  7.000e+04 -5.482e+00  5.482e+04  1.374e-135 -1.374e-131 
 3.300e-08 -6.994e-01  6.994e+03  2.345e+00 -2.345e+04 -2.067e+00  2.067e+04  1.000e+00 -1.000e+04 -7.000e+00  7.000e+04 -5.017e+00  5.017e+04  1.009e-139 -1.009e-135 
 3.400e-08 -8.419e-01  8.419e+03  2.345e+00 -2.345e+04 -2.032e+00  2.032e+04  1.000e+00 -1.000e+04 -7.000e+00  7.000e+04 -4.563e+00  4.563e+04  4.582e-144 -4.582e-140 
 3.500e-08 -9.045e-01  9.045e+03  2.345e+00 -2.345e+04 -1.999e+00  1.999e+04  1.000e+00 -1.000e+04 -7.000e+00  7.000e+04 -4.215e+00  4.215e+04  1.286e-148 -1.286e-144 
 3.600e-08 -8.770e-01  8.770e+03  2.345e+00 -2.345e+04 -1.966e+00  1.966e+04  1.000e+00 -1.000e+04 -7.000e+00  7.000e+04 -4.027e+00  4.027e+04  0.000e+00  5.557e-163 
 3.700e-08 -7.590e-01  7.590e+03  2.345e+00 -2.345e+04 -1.934e+00  1.934e+04  1.000e+00 -1.000e+04 -7.000e+00  7.000e+04 -4.018e+00  4.018e+04 -2.650e-157  2.650e-153 
 3.800e-08 -5.598e-01  5.598e+03  2.345e+00 -2.345e+04 -1.904e+00  1.904e+04  1.000e+00 -1.000e+04 -7.000e+00  7.000e+04 -4.172e+00  4.172e+04 -1.946e-161  1.946e-157 
 3.900e-08 -2.982e-01  2.982e+03  2.345e+00 -2.345e+04 -1.874e+00  1.874e+04  1.000e+00 -1.000e+04 -7.000e+00  7.000e+04 -4.450e+00  4.450e+04 -8.837e-166  8.837e-162 
 4.000e-08  5.329e-15 -2.910e-11  2.345e+00 -2.345e+04 -1.845e+00  1.845e+04  1.000e+00 -1.000e+04 -7.000e+00  7.000e+04 -4.799e+00  4.799e+04 -2.480e-170  2.480e-166 
 4.100e-08  3.042e-01 -3.042e+03  2.345e+00 -2.345e+04 -1.818e+00  1.818e+04  1.000e+00 -1.000e+04 -7.000e+00  7.000e+04 -5.165e+00  5.165e+04  1.436e-188 -1.177e-184 
 4.200e-08  5.826e-01 -5.826e+03  2.345e+00 -2.345e+04 -1.791e+00  1.791e+04  1.000e+00 -1.000e+04 -7.000e+00  7.000e+04 -5.500e+00  5.500e+04  5.111e-179 -5.111e-175 
 4.300e-08  8.058e-01 -8.058e+03  2.345e+00 -2.345e+04 -1.765e+00  1.765e+04  1.000e+00 -1.000e+04 -7.000e+00  7.000e+04 -5.766e+00  5.766e+04  3.754e-183 -3.754e-179 
 4.400e-08  9.501e-01 -9.501e+03  2.345e+00 -2.345e+04 -1.740e+00  1.740e+04  1.000e+00 -1.000e+04 -7.000e+00  7.000e+04 -5.936e+00  5.936e+04  1.704e-187 -1.704e-183 
 4.500e-08  1.000e+00 -1.000e+04  2.345e+00 -2.345e+04 -1.716e+00  1.716e+04  1.000e+00 -1.000e+04 -7.000e+00  7.000e+04 -6.000e+00  6.000e+04  4.782e-192 -4.782e-188 
 4.600e-08  9.501e-01 -9.501e+03  2.345e+00 -2.345e+04 -1.692e+00  1.692e+04  1.000e+00 -1.000e+04 -7.000e+00  7.000e+04 -5.955e+00  5.955e+04 -4.563e-210  3.738e-206 
 4.700e-08  8.058e-01 -8.058e+03  2.345e+00 -2.345e+04 -1.669e+00  1.669e+04  1.000e+00 -1.000e+04 -7.000e+00  7.000e+04 -5.812e+00  5.812e+04 -9.857e-201  9.857e-197 
 4.800e-08  5.826e-01 -5.826e+03  2.345e+00 -2.345e+04 -1.647e+00  1.647e+04  1.000e+00 -1.000e+04 -7.000e+00  7.000e+04 -5.589e+00  5.589e+04 -7.241e-205  7.241e-201 
 4.900e-08  3.042e-01 -3.042e+03  2.345e+00 -2.345e+04 -1.626e+00  1.626e+04  1.000e+00 -1.000e+04 -7.000e+00  7.000e+04 -5.309e+00  5.309e+04 -3.287e-209  3.287e-205 
 5.000e-08 -1.243e-14  8.731e-11  2.345e+00 -2.345e+04 -1.606e+00  1.606e+04  1.000e+00 -1.000e+04 -7.000e+00  7.000e+04 -5.000e+00  5.000e+04 -9.224e-214  9.224e-210 
 5.100e-08 -2.982e-01  2.982e+03  2.345e+00 -2.345e+04 -1.586e+00  1.586e+04  1.000e+00 -1.000e+04 -3.000e+00  3.000e+04 -4.691e+00  4.691e+04  1.288e-231 -1.319e-227 
 5.200e-08 -5.598e-01  5.598e+03  2.345e+00 -2.345e+04 -1.567e+00  1.567e+04  1.000e+00 -1.000e+04 -3.022e+00  3.022e+04 -4.411e+00  4.411e+04  1.901e-222 -1.901e-218 
 5.300e-08 -7.590e-01  7.590e+03  2.345e+00 -2.345e+04 -1.548e+00  1.548e+04  1.000e+00 -1.000e+04 -3.043e+00  3.043e+04 -4.188e+00  4.188e+04  1.397e-226 -1.397e-222 
 5.400e-08 -8.770e-01  8.770e+03  2.345e+00 -2.345e+04 -1.530e+00  1.530e+04  1.000e+00 -1.000e+04 -3.065e+00  3.065e+04 -4.045e+00  4.045e+04  6.341e-231 -6.341e-227 
 5.500e-08 -9.045e-01  9.045e+03  2.345e+00 -2.345e+04 -1.513e+00  1.513e+04  1.000e+00 -1.000e+04 -3.087e+00  3.087e+04 -4.000e+00  4.000e+04  1.779e-235 -1.779e-231 
 5.600e-08 -8.419e-01  8.419e+03  2.345e+00 -2.345e+04 -1.496e+00  1.496e+04  1.000e+00 -1.000e+04 -3.109e+00  3.109e+04 -4.064e+00  4.064e+04 -2.387e-253  1.117e-249 
 5.700e-08 -6.994e-01  6.994e+03  2.345e+00 -2.345e+04 -1.480e+00  1.480e+04  1.000e+00 -1.000e+04 -3.130e+00  3.130e+04 -4.234e+00  4.234e+04 -3.667e-244  3.667e-240 
 5.800e-08 -4.951e-01  4.951e+03  2.345e+00 -2.345e+04 -1.464e+00  1.464e+04  1.000e+00 -1.000e+04 -3.152e+00  3.152e+04 -4.500e+00  4.500e+04 -2.694e-248  2.694e-244 
 5.900e-08 -2.530e-01  2.530e+03  2.345e+00 -2.345e+04 -1.449e+00  1.449e+04  1.000e+00 -1.000e+04 -3.174e+00  3.174e+04 -4.835e+00  4.835e+04 -1.223e-252  1.223e-248 
 6.000e-08  1.421e-14 -1.455e-10  2.345e+00 -2.345e+04 -1.434e+00  1.434e+04  1.000e+00 -1.000e+04 -3.196e+00  3.196e+04 -5.201e+00  5.201e+04 -3.431e-257  3.431e-253 
 6.100e-08  2.373e-01 -2.373e+03  2.345e+00 -2.345e+04 -1.494e+00  1.494e+04  1.000e+00 -1.000e+04 -3.217e+00  3.217e+04 -5.550e+00  5.550e+04  7.221e-275 -7.098e-271 
 6.200e-08  4.355e-01 -4.355e+03  2.345e+00 -2.345e+04 -1.552e+00  1.552e+04  1.000e+00 -1.000e+04 -3.239e+00  3.239e+04 -5.828e+00  5.828e+04  7.073e-266 -7.073e-262 
 6.300e-08  5.767e-01 -5.767e+03  2.345e+00 -2.345e+04 -1.609e+00  1.609e+04  1.000e+00 -1.000e+04 -3.261e+00  3.261e+04 -5.982e+00  5.982e+04  5.196e-270 -5.196e-266 
 6.400e-08  6.506e-01 -6.506e+03  2.345e+00 -2.345e+04 -1.665e+00  1.665e+04  1.000e+00 -1.000e+04 -3.283e+00  3.283e+04 -5.973e+00  5.973e+04  2.359e-274 -2.359e-270 
 6.500e-08  6.545e-01 -6.545e+03  2.345e+00 -2.345e+04 -1.720e+00  1.720e+04  1.000e+00 -1.000e+04 -3.304e+00  3.304e+04 -5.785e+00  5.785e+04  6.618e-279 -6.618e-275 
 6.600e-08  5.938e-01 -5.938e+03  2.345e+00 -2.345e+04 -1.773e+00  1.773e+04  1.000e+00 -1.000e+04 -3.326e+00  3.326e+04 -5.437e+00  5.437e+04 -9.174e-297  1.002e-292 
 6.700e-08  4.803e-01 -4.803e+03  2.345e+00 -2.345e+04 -1.825e+00  1.825e+04  1.000e+00 -1.000e+04 -3.348e+00  3.348e+04 -4.983e+00  4.983e+04 -1.364e-287  1.364e-283 
 6.800e-08  3.307e-01 -3.307e+03  2.345e+00 -2.345e+04 -1.876e+00  1.876e+04  1.000e+00 -1.000e+04 -3.370e+00  3.370e+04 -4.518e+00  4.518e+04 -1.002e-291  1.002e-287 
 6.900e-08  1.642e-01 -1.642e+03  2.345e+00 -2.345e+04 -1.926e+00  1.926e+04  1.000e+00 -1.000e+04 -3.391e+00  3.391e+04 -4.155e+00  4.155e+04 -4.549e-296  4.549e-292 
 7.000e-08 -1.776e-15  2.910e-11  2.345e+00 -2.345e+04 -1.975e+00  1.975e+04  1.000e+00 -1.000e+04 -3.413e+00  3.413e+04 -4.001e+00  4.001e+04 -1.277e-300  1.277e-296 
 7.100e-08 -1.448e-01  1.448e+03  2.345e+00 -2.345e+04 -2.022e+00  2.022e+04  1.000e+00 -1.000e+04 -3.435e+00  3.435e+04 -4.121e+00  4.121e+04  6.920e-314  4.244e-314 
 7.200e-08 -2.571e-01  2.571e+03  2.345e+00 -2.345e+04 -2.068e+00  2.068e+04  1.000e+00 -1.000e+04 -3.457e+00  3.457e+04 -4.509e+00  4.509e+04  2.631e-309 -2.631e-305 
 7.300e-08 -3.287e-01  3.287e+03  2.345e+00 -2.345e+04 -2.114e+00  2.114e+04  1.000e+00 -1.000e+04 -3.478e+00  3.478e+04 -5.066e+00  5.066e+04  1.891e-313 -1.933e-309 
 7.400e-08 -3.573e-01  3.573e+03  2.345e+00 -2.345e+04 -2.158e+00  2.158e+04  1.000e+00 -1.000e+04 -3.500e+00  3.500e+04 -5.617e+00  5.617e+04 -2.167e-315 -9.315e-314 
 7.500e-08 -3.455e-01  3.455e+03  2.345e+00 -2.345e+04 -2.201e+00  2.201e+04  1.000e+00 -1.000e+04 -3.522e+00  3.522e+04 -5.959e+00  5.959e+04 -8.101e-319  8.102e-315 
 7.600e-08 -3.005e-01  3.005e+03  2.345e+00 -2.345e+04 -2.244e+00  2.244e+04  1.000e+00 -1.000e+04 -3.543e+00  3.543e+04 -5.939e+00  5.939e+04  0.000e+00  0.000e+00 
 7.700e-08 -2.323e-01  2.323e+03  2.345e+00 -2.345e+04 -2.285e+00  2.285e+04  1.000e+00 -1.000e+04 -3.565e+00  3.565e+04 -5.533e+00  5.533e+04  0.000e+00  0.000e+00 
 7.800e-08 -1.523e-01  1.523e+03  2.345e+00 -2.345e+04 -2.325e+00  2.325e+04  1.000e+00 -1.000e+04 -3.587e+00  3.587e+04 -4.885e+00  4.885e+04  0.000e+00  0.000e+00 
 7.900e-08 -7.172e-02  7.172e+02  2.345e+00 -2.345e+04 -2.365e+00  2.365e+04  1.000e+00 -1.000e+04 -3.609e+00  3.609e+04 -4.274e+00  4.274e+04  0.000e+00  0.000e+00 
 8.000e-08 -1.776e-15  1.455e-11  2.345e+00 -2.345e+04 -2.403e+00  2.403e+04  1.000e+00 -1.000e+04 -3.630e+00  3.630e+04 -4.001e+00  4.001e+04  0.000e+00  0.000e+00 
 8.100e-08  5.602e-02 -5.602e+02  2.345e+00 -2.345e+04 -2.441e+00  2.441e+04  1.000e+00 -1.000e+04 -3.652e+00  3.652e+04 -4.230e+00  4.230e+04  0.000e+00  0.000e+00 
 8.200e-08  9.271e-02 -9.271e+02  2.345e+00 -2.345e+04 -2.478e+00  2.478e+04  1.000e+00 -1.000e+04 -3.674e+00  3.674e+04 -4.874e+00  4.874e+04  0.000e+00  0.000e+00 
 8.300e-08  1.096e-01 -1.096e+03  2.345e+00 -2.345e+04 -2.514e+00  2.514e+04  5.684e-14 -4.657e-10 -3.696e+00  3.696e+04 -5.601e+00  5.601e+04  0.000e+00  0.000e+00 
 8.400e-08  1.091e-01 -1.091e+03  2.345e+00 -2.345e+04 -2.549e+00  2.549e+04 -1.000e+00  1.000e+04 -3.717e+00  3.717e+04 -5.991e+00  5.991e+04  0.000e+00  0.000e+00 
 8.500e-08  9.549e-02 -9.549e+02  2.345e+00 -2.345e+04 -2.583e+00  2.583e+04 -1.000e+00  1.000e+04 -3.739e+00  3.739e+04 -5.785e+00  5.785e+04  0.000e+00  0.000e+00 
 8.600e-08  7.403e-02 -7.403e+02  2.345e+00 -2.345e+04 -2.616e+00  2.616e+04 -1.000e+00  1.000e+04 -3.761e+00  3.761e+04 -5.083e+00  5.083e+04  0.000e+00  0.000e+00 
 8.700e-08  5.003e-02 -5.003e+02  2.345e+00 -2.345e+04 -2.649e+00  2.649e+04 -1.000e+00  1.000e+04 -3.783e+00  3.783e+04 -4.316e+00  4.316e+04  0.000e+00  0.000e+00 
 8.800e-08  2.797e-02 -2.797e+02  2.345e+00 -2.345e+04 -2.681e+00  2.681e+04 -1.000e+00  1.000e+04 -3.804e+00  3.804e+04 -4.001e+00  4.001e+04  0.000e+00  0.000e+00 
 8.900e-08  1.085e-02 -1.085e+02  2.345e+00 -2.345e+04 -2.712e+00  2.712e+04 -1.000e+00  1.000e+04 -3.826e+00  3.826e+04 -4.376e+00  4.376e+04  0.000e+00  0.000e+00 
 9.000e-08  4.441e-16 -6.366e-12  2.345e+00 -2.345e+04 -2.743e+00  2.743e+04 -1.000e+00  1.000e+04 -3.848e+00  3.848e+04 -5.201e+00  5.201e+04  0.000e+00  0.000e+00 
 9.100e-08 -4.854e-03  4.854e+01  2.345e+00 -2.345e+04 -2.772e+00  2.772e+04 -1.000e+00  1.000e+04 -3.870e+00  3.870e+04 -5.887e+00  5.887e+04  0.000e+00  0.000e+00 
 9.200e-08 -5.206e-03  5.206e+01  2.345e+00 -2.345e+04 -2.801e+00  2.801e+04 -1.000e+00  1.000e+04 -3.891e+00  3.891e+04 -5.914e+00  5.914e+04  0.000e+00  0.000e+00 
 9.300e-08 -3.190e-03  3.190e+01  2.345e+00 -2.345e+04 -2.830e+00  2.830e+04 -1.000e+00  1.000e+04 -3.913e+00  3.913e+04 -5.242e+00  5.242e+04  0.000e+00  0.000e+00 
 9.400e-08 -9.383e-04  9.383e+00  2.345e+00 -2.345e+04 -2.857e+00  2.857e+04 -1.000e+00  1.000e+04 -3.935e+00  3.935e+04 -4.377e+00  4.377e+04  0.000e+00  0.000e+00 
 9.500e-08 -2.082e-17  1.990e-13  2.345e+00 -2.345e+04 -2.885e+00  2.885e+04 -1.000e+00  1.000e+04 -3.957e+00  3.957e+04 -4.000e+00  4.000e+04  0.000e+00  0.000e+00 
 9.600e-08 -9.383e-04  9.383e+00  2.345e+00 -2.345e+04 -2.911e+00  2.911e+04 -1.000e+00  1.000e+04 -3.978e+00  3.978e+04 -4.423e+00  4.423e+04  0.000e+00  0.000e+00 
 9.700e-08 -3.190e-03  3.190e+01  2.345e+00 -2.345e+04 -2.937e+00  2.937e+04 -1.000e+00  1.000e+04 -4.000e+00  4.000e+04 -5.314e+00  5.314e+04  0.000e+00  0.000e+00 
 9.800e-08 -5.206e-03  5.206e+01  2.345e+00 -2.345e+04 -2.962e+00  2.962e+04 -1.000e+00  1.000e+04 -4.034e+00  4.034e+04 -5.952e+00  5.952e+04  0.000e+00  0.000e+00 
 9.900e-08 -4.854e-03  4.854e+01  2.345e+00 -2.345e+04 -2.987e+00  2.987e+04 -1.000e+00  1.000e+04 -4.068e+00  4.068e+04 -5.809e+00  5.809e+04  0.000e+00  0.000e+00 
 1.000e-07 -8.882e-16  9.095e-12  2.345e+00 -2.345e+04 -3.011e+00  3.011e+04 -1.000e+00  1.000e+04 -4.101e+00  4.101e+04 -5.000e+00  5.000e+04  0.000e+00  0.000e+00 
 1.010e-07  1.085e-02 -1.085e+02  2.345e+00 -2.345e+04 -3.034e+00  3.034e+04 -1.000e+00  1.000e+04 -4.135e+00  4.135e+04 -4.191e+00  4.191e+04  0.000e+00  0.000e+00 
 1.020e-07  2.797e-02 -2.797e+02  2.345e+00 -2.345e+04 -3.057e+00  3.057e+04 -1.000e+00  1.000e+04 -4.169e+00  4.169e+04 -4.048e+00  4.048e+04  0.000e+00  0.000e+00 
 1.030e-07  5.003e-02 -5.003e+02  2.345e+00 -2.345e+04 -3.080e+00  3.080e+04 -9.333e-01  9.333e+03 -4.203e+00  4.203e+04 -4.686e+00  4.686e+04  0.000e+00  0.000e+00 
 1.040e-07  7.403e-02 -7.403e+02  2.345e+00 -2.345e+04 -3.102e+00  3.102e+04 -8.667e-01  8.667e+03 -4.236e+00  4.236e+04 -5.577e+00  5.577e+04  0.000e+00  0.000e+00 
 1.050e-07  9.549e-02 -9.549e+02  2.345e+00 -2.345e+04 -3.123e+00  3.123e+04 -8.000e-01  8.000e+03 -4.270e+00  4.270e+04 -6.000e+00  6.000e+04  0.000e+00  0.000e+00 
 1.060e-07  1.091e-01 -1.091e+03  2.345e+00 -2.345e+04 -3.144e+00  3.144e+04 -7.333e-01  7.333e+03 -4.304e+00  4.304e+04 -5.623e+00  5.623e+04  0.000e+00  0.000e+00 
 1.070e-07  1.096e-01 -1.096e+03  2.345e+00 -2.345e+04 -3.164e+00  3.164e+04 -6.667e-01  6.667e+03 -4.338e+00  4.338e+04 -4.758e+00  4.758e+04  0.000e+00  0.000e+00 
 1.080e-07  9.271e-02 -9.271e+02  2.345e+00 -2.345e+04 -3.184e+00  3.184e+04 -6.000e-01  6.000e+03 -4.372e+00  4.372e+04 -4.086e+00  4.086e+04  0.000e+00  0.000e+00 
 1.090e-07  5.602e-02 -5.602e+02  2.345e+00 -2.345e+04 -3.203e+00  3.203e+04 -5.333e-01  5.333e+03 -4.405e+00  4.405e+04 -4.113e+00  4.113e+04  0.000e+00  0.000e+00 
 1.100e-07  9.770e-15 -1.019e-10  2.345e+00 -2.345e+04 -3.222e+00  3.222e+04 -4.667e-01  4.667e+03 -4.439e+00  4.439e+04 -4.799e+00  4.799e+04  0.000e+00  0.000e+00 
 1.110e-07 -7.172e-02  7.172e+02  2.345e+00 -2.345e+04 -3.241e+00  3.241e+04 -4.000e-01  4.000e+03 -4.473e+00  4.473e+04 -5.624e+00  5.624e+04  0.000e+00  0.000e+00 
 1.120e-07 -1.523e-01  1.523e+03  2.345e+00 -2.345e+04 -3.259e+00  3.259e+04 -3.333e-01  3.333e+03 -4.507e+00  4.507e+04 -5.999e+00  5.999e+04  0.000e+00  0.000e+00 
 1.130e-07 -2.323e-01  2.323e+03  2.345e+00 -2.345e+04 -3.277e+00  3.277e+04 -2.667e-01  2.667e+03 -4.541e+00  4.541e+04 -5.684e+00  5.684e+04  0.000e+00  0.000e+00 
 1.140e-07 -3.005e-01  3.005e+03  2.345e+00 -2.345e+04 -3.294e+00  3.294e+04 -2.000e-01  2.000e+03 -4.574e+00  4.574e+04 -4.917e+00  4.917e+04  0.000e+00  0.000e+00 
 1.150e-07 -3.455e-01  3.455e+03  2.345e+00 -2.345e+04 -3.311e+00  3.311e+04 -1.333e-01  1.333e+03 -4.608e+00  4.608e+04 -4.215e+00  4.215e+04  0.000e+00  0.000e+00 
 1.160e-07 -3.573e-01  3.573e+03  2.345e+00 -2.345e+04 -3.327e+00  3.327e+04 -6.667e-02  6.667e+02 -4.642e+00  4.642e+04 -4.009e+00  4.009e+04  0.000e+00  0.000e+00 
 1.170e-07 -3.287e-01  3.287e+03  2.345e+00 -2.345e+04 -3.343e+00  3.343e+04 -1.332e-14  1.164e-10 -4.676e+00  4.676e+04 -4.399e+00  4.399e+04  0.000e+00  0.000e+00 
