 time     v(/vam)  v(/iam)  v(/vdc)  v(/idc)  v(/vexp) v(/iexp) v(/vpulse) v(/ipulse) v(/vpwl) v(/ipwl) v(/vsffm) v(/isffm) v(/vsin) v(/isin)
 0.0e+00  0.0e+00  0.0e+00  2.3e+00 -2.3e+04 -4.0e+00  4.0e+04 -1.0e+00  1.0e+04 -7.0e+00  7.0e+04 -5.0e+00  5.0e+04  0.0e+00  0.0e+00 
 1.0e-09  0.0e+00  0.0e+00  2.3e+00 -2.3e+04 -4.0e+00  4.0e+04 -1.0e+00  1.0e+04 -7.0e+00  7.0e+04 -4.2e+00  4.2e+04  0.0e+00  0.0e+00 
 2.0e-09  0.0e+00  0.0e+00  2.3e+00 -2.3e+04 -4.0e+00  4.0e+04 -1.0e+00  1.0e+04 -7.0e+00  7.0e+04 -4.0e+00  4.0e+04  2.7e-05 -2.7e-01 
 3.0e-09  0.0e+00  0.0e+00  2.3e+00 -2.3e+04 -3.9e+00  3.9e+04 -9.3e-01  9.3e+03 -7.0e+00  7.0e+04 -4.7e+00  4.7e+04  2.0e-09 -2.0e-05 
 4.0e-09  0.0e+00  0.0e+00  2.3e+00 -2.3e+04 -3.8e+00  3.8e+04 -8.7e-01  8.7e+03 -7.0e+00  7.0e+04 -5.6e+00  5.6e+04  8.9e-14 -8.9e-10 
 5.0e-09  0.0e+00  0.0e+00  2.3e+00 -2.3e+04 -3.7e+00  3.7e+04 -8.0e-01  8.0e+03 -7.0e+00  7.0e+04 -6.0e+00  6.0e+04  2.5e-18 -2.5e-14 
 6.0e-09  0.0e+00  0.0e+00  2.3e+00 -2.3e+04 -3.6e+00  3.6e+04 -7.3e-01  7.3e+03 -7.0e+00  7.0e+04 -5.6e+00  5.6e+04 -1.9e-37 -1.5e-33 
 7.0e-09  0.0e+00  0.0e+00  2.3e+00 -2.3e+04 -3.5e+00  3.5e+04 -6.7e-01  6.7e+03 -7.0e+00  7.0e+04 -4.8e+00  4.8e+04 -5.1e-27  5.1e-23 
 8.0e-09  0.0e+00  0.0e+00  2.3e+00 -2.3e+04 -3.5e+00  3.5e+04 -6.0e-01  6.0e+03 -7.0e+00  7.0e+04 -4.1e+00  4.1e+04 -3.8e-31  3.8e-27 
 9.0e-09  0.0e+00  0.0e+00  2.3e+00 -2.3e+04 -3.4e+00  3.4e+04 -5.3e-01  5.3e+03 -7.0e+00  7.0e+04 -4.1e+00  4.1e+04 -1.7e-35  1.7e-31 
 1.0e-08  0.0e+00  0.0e+00  2.3e+00 -2.3e+04 -3.3e+00  3.3e+04 -4.7e-01  4.7e+03 -7.0e+00  7.0e+04 -4.8e+00  4.8e+04 -4.8e-40  4.8e-36 
 1.1e-08  0.0e+00  0.0e+00  2.3e+00 -2.3e+04 -3.2e+00  3.2e+04 -4.0e-01  4.0e+03 -7.0e+00  7.0e+04 -5.6e+00  5.6e+04  4.0e-59  0.0e+00 
 1.2e-08  0.0e+00  0.0e+00  2.3e+00 -2.3e+04 -3.1e+00  3.1e+04 -3.3e-01  3.3e+03 -7.0e+00  7.0e+04 -6.0e+00  6.0e+04  9.9e-49 -9.9e-45 
 1.3e-08  0.0e+00  0.0e+00  2.3e+00 -2.3e+04 -3.1e+00  3.1e+04 -2.7e-01  2.7e+03 -7.0e+00  7.0e+04 -5.7e+00  5.7e+04  7.3e-53 -7.3e-49 
 1.4e-08  0.0e+00  0.0e+00  2.3e+00 -2.3e+04 -3.0e+00  3.0e+04 -2.0e-01  2.0e+03 -7.0e+00  7.0e+04 -4.9e+00  4.9e+04  3.3e-57 -3.3e-53 
 1.5e-08  0.0e+00  0.0e+00  2.3e+00 -2.3e+04 -2.9e+00  2.9e+04 -1.3e-01  1.3e+03 -7.0e+00  7.0e+04 -4.2e+00  4.2e+04  9.3e-62 -9.3e-58 
 1.6e-08  0.0e+00  0.0e+00  2.3e+00 -2.3e+04 -2.9e+00  2.9e+04 -6.7e-02  6.7e+02 -7.0e+00  7.0e+04 -4.0e+00  4.0e+04 -8.4e-81  2.1e-76 
 1.7e-08  0.0e+00  0.0e+00  2.3e+00 -2.3e+04 -2.8e+00  2.8e+04  0.0e+00 -1.8e-12 -7.0e+00  7.0e+04 -4.4e+00  4.4e+04 -1.9e-70  1.9e-66 
 1.8e-08  0.0e+00  0.0e+00  2.3e+00 -2.3e+04 -2.8e+00  2.8e+04  6.7e-02 -6.7e+02 -7.0e+00  7.0e+04 -5.1e+00  5.1e+04 -1.4e-74  1.4e-70 
 1.9e-08  0.0e+00  0.0e+00  2.3e+00 -2.3e+04 -2.7e+00  2.7e+04  1.3e-01 -1.3e+03 -7.0e+00  7.0e+04 -5.8e+00  5.8e+04 -6.4e-79  6.4e-75 
 2.0e-08  0.0e+00  0.0e+00  2.3e+00 -2.3e+04 -2.6e+00  2.6e+04  2.0e-01 -2.0e+03 -7.0e+00  7.0e+04 -6.0e+00  6.0e+04 -1.8e-83  1.8e-79 
 2.1e-08  1.6e-01 -1.6e+03  2.3e+00 -2.3e+04 -2.6e+00  2.6e+04  2.7e-01 -2.7e+03 -7.0e+00  7.0e+04 -5.7e+00  5.7e+04 -2.9e-101  0.0e+00 
 2.2e-08  3.3e-01 -3.3e+03  2.3e+00 -2.3e+04 -2.5e+00  2.5e+04  3.3e-01 -3.3e+03 -7.0e+00  7.0e+04 -5.1e+00  5.1e+04  3.7e-92 -3.7e-88 
 2.3e-08  4.8e-01 -4.8e+03  2.3e+00 -2.3e+04 -2.5e+00  2.5e+04  4.0e-01 -4.0e+03 -7.0e+00  7.0e+04 -4.5e+00  4.5e+04  2.7e-96 -2.7e-92 
 2.4e-08  5.9e-01 -5.9e+03  2.3e+00 -2.3e+04 -2.4e+00  2.4e+04  4.7e-01 -4.7e+03 -7.0e+00  7.0e+04 -4.1e+00  4.1e+04  1.2e-100 -1.2e-96 
 2.5e-08  6.5e-01 -6.5e+03  2.3e+00 -2.3e+04 -2.4e+00  2.4e+04  5.3e-01 -5.3e+03 -7.0e+00  7.0e+04 -4.0e+00  4.0e+04  3.5e-105 -3.5e-101 
 2.6e-08  6.5e-01 -6.5e+03  2.3e+00 -2.3e+04 -2.3e+00  2.3e+04  6.0e-01 -6.0e+03 -7.0e+00  7.0e+04 -4.4e+00  4.4e+04  9.1e-123 -9.9e-119 
 2.7e-08  5.8e-01 -5.8e+03  2.3e+00 -2.3e+04 -2.3e+00  2.3e+04  6.7e-01 -6.7e+03 -7.0e+00  7.0e+04 -4.9e+00  4.9e+04 -7.1e-114  7.1e-110 
 2.8e-08  4.4e-01 -4.4e+03  2.3e+00 -2.3e+04 -2.3e+00  2.3e+04  7.3e-01 -7.3e+03 -7.0e+00  7.0e+04 -5.5e+00  5.5e+04 -5.2e-118  5.2e-114 
 2.9e-08  2.4e-01 -2.4e+03  2.3e+00 -2.3e+04 -2.2e+00  2.2e+04  8.0e-01 -8.0e+03 -7.0e+00  7.0e+04 -5.9e+00  5.9e+04 -2.4e-122  2.4e-118 
 3.0e-08  2.7e-15 -2.9e-11  2.3e+00 -2.3e+04 -2.2e+00  2.2e+04  8.7e-01 -8.7e+03 -7.0e+00  7.0e+04 -6.0e+00  6.0e+04 -6.7e-127  6.7e-123 
 3.1e-08 -2.5e-01  2.5e+03  2.3e+00 -2.3e+04 -2.1e+00  2.1e+04  9.3e-01 -9.3e+03 -7.0e+00  7.0e+04 -5.8e+00  5.8e+04 -1.3e-144  2.1e-140 
 3.2e-08 -5.0e-01  5.0e+03  2.3e+00 -2.3e+04 -2.1e+00  2.1e+04  1.0e+00 -1.0e+04 -7.0e+00  7.0e+04 -5.5e+00  5.5e+04  1.4e-135 -1.4e-131 
 3.3e-08 -7.0e-01  7.0e+03  2.3e+00 -2.3e+04 -2.1e+00  2.1e+04  1.0e+00 -1.0e+04 -7.0e+00  7.0e+04 -5.0e+00  5.0e+04  1.0e-139 -1.0e-135 
 3.4e-08 -8.4e-01  8.4e+03  2.3e+00 -2.3e+04 -2.0e+00  2.0e+04  1.0e+00 -1.0e+04 -7.0e+00  7.0e+04 -4.6e+00  4.6e+04  4.6e-144 -4.6e-140 
 3.5e-08 -9.0e-01  9.0e+03  2.3e+00 -2.3e+04 -2.0e+00  2.0e+04  1.0e+00 -1.0e+04 -7.0e+00  7.0e+04 -4.2e+00  4.2e+04  1.3e-148 -1.3e-144 
 3.6e-08 -8.8e-01  8.8e+03  2.3e+00 -2.3e+04 -2.0e+00  2.0e+04  1.0e+00 -1.0e+04 -7.0e+00  7.0e+04 -4.0e+00  4.0e+04  0.0e+00  5.6e-163 
 3.7e-08 -7.6e-01  7.6e+03  2.3e+00 -2.3e+04 -1.9e+00  1.9e+04  1.0e+00 -1.0e+04 -7.0e+00  7.0e+04 -4.0e+00  4.0e+04 -2.6e-157  2.6e-153 
 3.8e-08 -5.6e-01  5.6e+03  2.3e+00 -2.3e+04 -1.9e+00  1.9e+04  1.0e+00 -1.0e+04 -7.0e+00  7.0e+04 -4.2e+00  4.2e+04 -1.9e-161  1.9e-157 
 3.9e-08 -3.0e-01  3.0e+03  2.3e+00 -2.3e+04 -1.9e+00  1.9e+04  1.0e+00 -1.0e+04 -7.0e+00  7.0e+04 -4.4e+00  4.4e+04 -8.8e-166  8.8e-162 
 4.0e-08  5.3e-15 -2.9e-11  2.3e+00 -2.3e+04 -1.8e+00  1.8e+04  1.0e+00 -1.0e+04 -7.0e+00  7.0e+04 -4.8e+00  4.8e+04 -2.5e-170  2.5e-166 
 4.1e-08  3.0e-01 -3.0e+03  2.3e+00 -2.3e+04 -1.8e+00  1.8e+04  1.0e+00 -1.0e+04 -7.0e+00  7.0e+04 -5.2e+00  5.2e+04  1.4e-188 -1.2e-184 
 4.2e-08  5.8e-01 -5.8e+03  2.3e+00 -2.3e+04 -1.8e+00  1.8e+04  1.0e+00 -1.0e+04 -7.0e+00  7.0e+04 -5.5e+00  5.5e+04  5.1e-179 -5.1e-175 
 4.3e-08  8.1e-01 -8.1e+03  2.3e+00 -2.3e+04 -1.8e+00  1.8e+04  1.0e+00 -1.0e+04 -7.0e+00  7.0e+04 -5.8e+00  5.8e+04  3.8e-183 -3.8e-179 
 4.4e-08  9.5e-01 -9.5e+03  2.3e+00 -2.3e+04 -1.7e+00  1.7e+04  1.0e+00 -1.0e+04 -7.0e+00  7.0e+04 -5.9e+00  5.9e+04  1.7e-187 -1.7e-183 
 4.5e-08  1.0e+00 -1.0e+04  2.3e+00 -2.3e+04 -1.7e+00  1.7e+04  1.0e+00 -1.0e+04 -7.0e+00  7.0e+04 -6.0e+00  6.0e+04  4.8e-192 -4.8e-188 
 4.6e-08  9.5e-01 -9.5e+03  2.3e+00 -2.3e+04 -1.7e+00  1.7e+04  1.0e+00 -1.0e+04 -7.0e+00  7.0e+04 -6.0e+00  6.0e+04 -4.6e-210  3.7e-206 
 4.7e-08  8.1e-01 -8.1e+03  2.3e+00 -2.3e+04 -1.7e+00  1.7e+04  1.0e+00 -1.0e+04 -7.0e+00  7.0e+04 -5.8e+00  5.8e+04 -9.9e-201  9.9e-197 
 4.8e-08  5.8e-01 -5.8e+03  2.3e+00 -2.3e+04 -1.6e+00  1.6e+04  1.0e+00 -1.0e+04 -7.0e+00  7.0e+04 -5.6e+00  5.6e+04 -7.2e-205  7.2e-201 
 4.9e-08  3.0e-01 -3.0e+03  2.3e+00 -2.3e+04 -1.6e+00  1.6e+04  1.0e+00 -1.0e+04 -7.0e+00  7.0e+04 -5.3e+00  5.3e+04 -3.3e-209  3.3e-205 
 5.0e-08 -1.2e-14  8.7e-11  2.3e+00 -2.3e+04 -1.6e+00  1.6e+04  1.0e+00 -1.0e+04 -7.0e+00  7.0e+04 -5.0e+00  5.0e+04 -9.2e-214  9.2e-210 
 5.1e-08 -3.0e-01  3.0e+03  2.3e+00 -2.3e+04 -1.6e+00  1.6e+04  1.0e+00 -1.0e+04 -3.0e+00  3.0e+04 -4.7e+00  4.7e+04  1.3e-231 -1.3e-227 
 5.2e-08 -5.6e-01  5.6e+03  2.3e+00 -2.3e+04 -1.6e+00  1.6e+04  1.0e+00 -1.0e+04 -3.0e+00  3.0e+04 -4.4e+00  4.4e+04  1.9e-222 -1.9e-218 
 5.3e-08 -7.6e-01  7.6e+03  2.3e+00 -2.3e+04 -1.5e+00  1.5e+04  1.0e+00 -1.0e+04 -3.0e+00  3.0e+04 -4.2e+00  4.2e+04  1.4e-226 -1.4e-222 
 5.4e-08 -8.8e-01  8.8e+03  2.3e+00 -2.3e+04 -1.5e+00  1.5e+04  1.0e+00 -1.0e+04 -3.1e+00  3.1e+04 -4.0e+00  4.0e+04  6.3e-231 -6.3e-227 
 5.5e-08 -9.0e-01  9.0e+03  2.3e+00 -2.3e+04 -1.5e+00  1.5e+04  1.0e+00 -1.0e+04 -3.1e+00  3.1e+04 -4.0e+00  4.0e+04  1.8e-235 -1.8e-231 
 5.6e-08 -8.4e-01  8.4e+03  2.3e+00 -2.3e+04 -1.5e+00  1.5e+04  1.0e+00 -1.0e+04 -3.1e+00  3.1e+04 -4.1e+00  4.1e+04 -2.4e-253  1.1e-249 
 5.7e-08 -7.0e-01  7.0e+03  2.3e+00 -2.3e+04 -1.5e+00  1.5e+04  1.0e+00 -1.0e+04 -3.1e+00  3.1e+04 -4.2e+00  4.2e+04 -3.7e-244  3.7e-240 
 5.8e-08 -5.0e-01  5.0e+03  2.3e+00 -2.3e+04 -1.5e+00  1.5e+04  1.0e+00 -1.0e+04 -3.2e+00  3.2e+04 -4.5e+00  4.5e+04 -2.7e-248  2.7e-244 
 5.9e-08 -2.5e-01  2.5e+03  2.3e+00 -2.3e+04 -1.4e+00  1.4e+04  1.0e+00 -1.0e+04 -3.2e+00  3.2e+04 -4.8e+00  4.8e+04 -1.2e-252  1.2e-248 
 6.0e-08  1.4e-14 -1.5e-10  2.3e+00 -2.3e+04 -1.4e+00  1.4e+04  1.0e+00 -1.0e+04 -3.2e+00  3.2e+04 -5.2e+00  5.2e+04 -3.4e-257  3.4e-253 
 6.1e-08  2.4e-01 -2.4e+03  2.3e+00 -2.3e+04 -1.5e+00  1.5e+04  1.0e+00 -1.0e+04 -3.2e+00  3.2e+04 -5.6e+00  5.6e+04  7.2e-275 -7.1e-271 
 6.2e-08  4.4e-01 -4.4e+03  2.3e+00 -2.3e+04 -1.6e+00  1.6e+04  1.0e+00 -1.0e+04 -3.2e+00  3.2e+04 -5.8e+00  5.8e+04  7.1e-266 -7.1e-262 
 6.3e-08  5.8e-01 -5.8e+03  2.3e+00 -2.3e+04 -1.6e+00  1.6e+04  1.0e+00 -1.0e+04 -3.3e+00  3.3e+04 -6.0e+00  6.0e+04  5.2e-270 -5.2e-266 
 6.4e-08  6.5e-01 -6.5e+03  2.3e+00 -2.3e+04 -1.7e+00  1.7e+04  1.0e+00 -1.0e+04 -3.3e+00  3.3e+04 -6.0e+00  6.0e+04  2.4e-274 -2.4e-270 
 6.5e-08  6.5e-01 -6.5e+03  2.3e+00 -2.3e+04 -1.7e+00  1.7e+04  1.0e+00 -1.0e+04 -3.3e+00  3.3e+04 -5.8e+00  5.8e+04  6.6e-279 -6.6e-275 
 6.6e-08  5.9e-01 -5.9e+03  2.3e+00 -2.3e+04 -1.8e+00  1.8e+04  1.0e+00 -1.0e+04 -3.3e+00  3.3e+04 -5.4e+00  5.4e+04 -9.2e-297  1.0e-292 
 6.7e-08  4.8e-01 -4.8e+03  2.3e+00 -2.3e+04 -1.8e+00  1.8e+04  1.0e+00 -1.0e+04 -3.3e+00  3.3e+04 -5.0e+00  5.0e+04 -1.4e-287  1.4e-283 
 6.8e-08  3.3e-01 -3.3e+03  2.3e+00 -2.3e+04 -1.9e+00  1.9e+04  1.0e+00 -1.0e+04 -3.4e+00  3.4e+04 -4.5e+00  4.5e+04 -1.0e-291  1.0e-287 
 6.9e-08  1.6e-01 -1.6e+03  2.3e+00 -2.3e+04 -1.9e+00  1.9e+04  1.0e+00 -1.0e+04 -3.4e+00  3.4e+04 -4.2e+00  4.2e+04 -4.5e-296  4.5e-292 
 7.0e-08 -1.8e-15  2.9e-11  2.3e+00 -2.3e+04 -2.0e+00  2.0e+04  1.0e+00 -1.0e+04 -3.4e+00  3.4e+04 -4.0e+00  4.0e+04 -1.3e-300  1.3e-296 
 7.1e-08 -1.4e-01  1.4e+03  2.3e+00 -2.3e+04 -2.0e+00  2.0e+04  1.0e+00 -1.0e+04 -3.4e+00  3.4e+04 -4.1e+00  4.1e+04  6.9e-314  4.2e-314 
 7.2e-08 -2.6e-01  2.6e+03  2.3e+00 -2.3e+04 -2.1e+00  2.1e+04  1.0e+00 -1.0e+04 -3.5e+00  3.5e+04 -4.5e+00  4.5e+04  2.6e-309 -2.6e-305 
 7.3e-08 -3.3e-01  3.3e+03  2.3e+00 -2.3e+04 -2.1e+00  2.1e+04  1.0e+00 -1.0e+04 -3.5e+00  3.5e+04 -5.1e+00  5.1e+04  1.9e-313 -1.9e-309 
 7.4e-08 -3.6e-01  3.6e+03  2.3e+00 -2.3e+04 -2.2e+00  2.2e+04  1.0e+00 -1.0e+04 -3.5e+00  3.5e+04 -5.6e+00  5.6e+04 -2.2e-315 -9.3e-314 
 7.5e-08 -3.5e-01  3.5e+03  2.3e+00 -2.3e+04 -2.2e+00  2.2e+04  1.0e+00 -1.0e+04 -3.5e+00  3.5e+04 -6.0e+00  6.0e+04 -8.1e-319  8.1e-315 
 7.6e-08 -3.0e-01  3.0e+03  2.3e+00 -2.3e+04 -2.2e+00  2.2e+04  1.0e+00 -1.0e+04 -3.5e+00  3.5e+04 -5.9e+00  5.9e+04  0.0e+00  0.0e+00 
 7.7e-08 -2.3e-01  2.3e+03  2.3e+00 -2.3e+04 -2.3e+00  2.3e+04  1.0e+00 -1.0e+04 -3.6e+00  3.6e+04 -5.5e+00  5.5e+04  0.0e+00  0.0e+00 
 7.8e-08 -1.5e-01  1.5e+03  2.3e+00 -2.3e+04 -2.3e+00  2.3e+04  1.0e+00 -1.0e+04 -3.6e+00  3.6e+04 -4.9e+00  4.9e+04  0.0e+00  0.0e+00 
 7.9e-08 -7.2e-02  7.2e+02  2.3e+00 -2.3e+04 -2.4e+00  2.4e+04  1.0e+00 -1.0e+04 -3.6e+00  3.6e+04 -4.3e+00  4.3e+04  0.0e+00  0.0e+00 
 8.0e-08 -1.8e-15  1.5e-11  2.3e+00 -2.3e+04 -2.4e+00  2.4e+04  1.0e+00 -1.0e+04 -3.6e+00  3.6e+04 -4.0e+00  4.0e+04  0.0e+00  0.0e+00 
 8.1e-08  5.6e-02 -5.6e+02  2.3e+00 -2.3e+04 -2.4e+00  2.4e+04  1.0e+00 -1.0e+04 -3.7e+00  3.7e+04 -4.2e+00  4.2e+04  0.0e+00  0.0e+00 
 8.2e-08  9.3e-02 -9.3e+02  2.3e+00 -2.3e+04 -2.5e+00  2.5e+04  1.0e+00 -1.0e+04 -3.7e+00  3.7e+04 -4.9e+00  4.9e+04  0.0e+00  0.0e+00 
 8.3e-08  1.1e-01 -1.1e+03  2.3e+00 -2.3e+04 -2.5e+00  2.5e+04  5.7e-14 -4.7e-10 -3.7e+00  3.7e+04 -5.6e+00  5.6e+04  0.0e+00  0.0e+00 
 8.4e-08  1.1e-01 -1.1e+03  2.3e+00 -2.3e+04 -2.5e+00  2.5e+04 -1.0e+00  1.0e+04 -3.7e+00  3.7e+04 -6.0e+00  6.0e+04  0.0e+00  0.0e+00 
 8.5e-08  9.5e-02 -9.5e+02  2.3e+00 -2.3e+04 -2.6e+00  2.6e+04 -1.0e+00  1.0e+04 -3.7e+00  3.7e+04 -5.8e+00  5.8e+04  0.0e+00  0.0e+00 
 8.6e-08  7.4e-02 -7.4e+02  2.3e+00 -2.3e+04 -2.6e+00  2.6e+04 -1.0e+00  1.0e+04 -3.8e+00  3.8e+04 -5.1e+00  5.1e+04  0.0e+00  0.0e+00 
 8.7e-08  5.0e-02 -5.0e+02  2.3e+00 -2.3e+04 -2.6e+00  2.6e+04 -1.0e+00  1.0e+04 -3.8e+00  3.8e+04 -4.3e+00  4.3e+04  0.0e+00  0.0e+00 
 8.8e-08  2.8e-02 -2.8e+02  2.3e+00 -2.3e+04 -2.7e+00  2.7e+04 -1.0e+00  1.0e+04 -3.8e+00  3.8e+04 -4.0e+00  4.0e+04  0.0e+00  0.0e+00 
 8.9e-08  1.1e-02 -1.1e+02  2.3e+00 -2.3e+04 -2.7e+00  2.7e+04 -1.0e+00  1.0e+04 -3.8e+00  3.8e+04 -4.4e+00  4.4e+04  0.0e+00  0.0e+00 
 9.0e-08  4.4e-16 -6.4e-12  2.3e+00 -2.3e+04 -2.7e+00  2.7e+04 -1.0e+00  1.0e+04 -3.8e+00  3.8e+04 -5.2e+00  5.2e+04  0.0e+00  0.0e+00 
 9.1e-08 -4.9e-03  4.9e+01  2.3e+00 -2.3e+04 -2.8e+00  2.8e+04 -1.0e+00  1.0e+04 -3.9e+00  3.9e+04 -5.9e+00  5.9e+04  0.0e+00  0.0e+00 
 9.2e-08 -5.2e-03  5.2e+01  2.3e+00 -2.3e+04 -2.8e+00  2.8e+04 -1.0e+00  1.0e+04 -3.9e+00  3.9e+04 -5.9e+00  5.9e+04  0.0e+00  0.0e+00 
 9.3e-08 -3.2e-03  3.2e+01  2.3e+00 -2.3e+04 -2.8e+00  2.8e+04 -1.0e+00  1.0e+04 -3.9e+00  3.9e+04 -5.2e+00  5.2e+04  0.0e+00  0.0e+00 
 9.4e-08 -9.4e-04  9.4e+00  2.3e+00 -2.3e+04 -2.9e+00  2.9e+04 -1.0e+00  1.0e+04 -3.9e+00  3.9e+04 -4.4e+00  4.4e+04  0.0e+00  0.0e+00 
 9.5e-08 -2.1e-17  2.0e-13  2.3e+00 -2.3e+04 -2.9e+00  2.9e+04 -1.0e+00  1.0e+04 -4.0e+00  4.0e+04 -4.0e+00  4.0e+04  0.0e+00  0.0e+00 
 9.6e-08 -9.4e-04  9.4e+00  2.3e+00 -2.3e+04 -2.9e+00  2.9e+04 -1.0e+00  1.0e+04 -4.0e+00  4.0e+04 -4.4e+00  4.4e+04  0.0e+00  0.0e+00 
 9.7e-08 -3.2e-03  3.2e+01  2.3e+00 -2.3e+04 -2.9e+00  2.9e+04 -1.0e+00  1.0e+04 -4.0e+00  4.0e+04 -5.3e+00  5.3e+04  0.0e+00  0.0e+00 
 9.8e-08 -5.2e-03  5.2e+01  2.3e+00 -2.3e+04 -3.0e+00  3.0e+04 -1.0e+00  1.0e+04 -4.0e+00  4.0e+04 -6.0e+00  6.0e+04  0.0e+00  0.0e+00 
 9.9e-08 -4.9e-03  4.9e+01  2.3e+00 -2.3e+04 -3.0e+00  3.0e+04 -1.0e+00  1.0e+04 -4.1e+00  4.1e+04 -5.8e+00  5.8e+04  0.0e+00  0.0e+00 
 1.0e-07 -8.9e-16  9.1e-12  2.3e+00 -2.3e+04 -3.0e+00  3.0e+04 -1.0e+00  1.0e+04 -4.1e+00  4.1e+04 -5.0e+00  5.0e+04  0.0e+00  0.0e+00 
 1.0e-07  1.1e-02 -1.1e+02  2.3e+00 -2.3e+04 -3.0e+00  3.0e+04 -1.0e+00  1.0e+04 -4.1e+00  4.1e+04 -4.2e+00  4.2e+04  0.0e+00  0.0e+00 
 1.0e-07  2.8e-02 -2.8e+02  2.3e+00 -2.3e+04 -3.1e+00  3.1e+04 -1.0e+00  1.0e+04 -4.2e+00  4.2e+04 -4.0e+00  4.0e+04  0.0e+00  0.0e+00 
 1.0e-07  5.0e-02 -5.0e+02  2.3e+00 -2.3e+04 -3.1e+00  3.1e+04 -9.3e-01  9.3e+03 -4.2e+00  4.2e+04 -4.7e+00  4.7e+04  0.0e+00  0.0e+00 
 1.0e-07  7.4e-02 -7.4e+02  2.3e+00 -2.3e+04 -3.1e+00  3.1e+04 -8.7e-01  8.7e+03 -4.2e+00  4.2e+04 -5.6e+00  5.6e+04  0.0e+00  0.0e+00 
 1.0e-07  9.5e-02 -9.5e+02  2.3e+00 -2.3e+04 -3.1e+00  3.1e+04 -8.0e-01  8.0e+03 -4.3e+00  4.3e+04 -6.0e+00  6.0e+04  0.0e+00  0.0e+00 
 1.1e-07  1.1e-01 -1.1e+03  2.3e+00 -2.3e+04 -3.1e+00  3.1e+04 -7.3e-01  7.3e+03 -4.3e+00  4.3e+04 -5.6e+00  5.6e+04  0.0e+00  0.0e+00 
 1.1e-07  1.1e-01 -1.1e+03  2.3e+00 -2.3e+04 -3.2e+00  3.2e+04 -6.7e-01  6.7e+03 -4.3e+00  4.3e+04 -4.8e+00  4.8e+04  0.0e+00  0.0e+00 
 1.1e-07  9.3e-02 -9.3e+02  2.3e+00 -2.3e+04 -3.2e+00  3.2e+04 -6.0e-01  6.0e+03 -4.4e+00  4.4e+04 -4.1e+00  4.1e+04  0.0e+00  0.0e+00 
 1.1e-07  5.6e-02 -5.6e+02  2.3e+00 -2.3e+04 -3.2e+00  3.2e+04 -5.3e-01  5.3e+03 -4.4e+00  4.4e+04 -4.1e+00  4.1e+04  0.0e+00  0.0e+00 
 1.1e-07  9.8e-15 -1.0e-10  2.3e+00 -2.3e+04 -3.2e+00  3.2e+04 -4.7e-01  4.7e+03 -4.4e+00  4.4e+04 -4.8e+00  4.8e+04  0.0e+00  0.0e+00 
 1.1e-07 -7.2e-02  7.2e+02  2.3e+00 -2.3e+04 -3.2e+00  3.2e+04 -4.0e-01  4.0e+03 -4.5e+00  4.5e+04 -5.6e+00  5.6e+04  0.0e+00  0.0e+00 
 1.1e-07 -1.5e-01  1.5e+03  2.3e+00 -2.3e+04 -3.3e+00  3.3e+04 -3.3e-01  3.3e+03 -4.5e+00  4.5e+04 -6.0e+00  6.0e+04  0.0e+00  0.0e+00 
 1.1e-07 -2.3e-01  2.3e+03  2.3e+00 -2.3e+04 -3.3e+00  3.3e+04 -2.7e-01  2.7e+03 -4.5e+00  4.5e+04 -5.7e+00  5.7e+04  0.0e+00  0.0e+00 
 1.1e-07 -3.0e-01  3.0e+03  2.3e+00 -2.3e+04 -3.3e+00  3.3e+04 -2.0e-01  2.0e+03 -4.6e+00  4.6e+04 -4.9e+00  4.9e+04  0.0e+00  0.0e+00 
 1.1e-07 -3.5e-01  3.5e+03  2.3e+00 -2.3e+04 -3.3e+00  3.3e+04 -1.3e-01  1.3e+03 -4.6e+00  4.6e+04 -4.2e+00  4.2e+04  0.0e+00  0.0e+00 
 1.2e-07 -3.6e-01  3.6e+03  2.3e+00 -2.3e+04 -3.3e+00  3.3e+04 -6.7e-02  6.7e+02 -4.6e+00  4.6e+04 -4.0e+00  4.0e+04  0.0e+00  0.0e+00 
 1.2e-07 -3.3e-01  3.3e+03  2.3e+00 -2.3e+04 -3.3e+00  3.3e+04 -1.3e-14  1.2e-10 -4.7e+00  4.7e+04 -4.4e+00  4.4e+04  0.0e+00  0.0e+00 
 1.2e-07 -2.6e-01  2.6e+03  2.3e+00 -2.3e+04 -3.4e+00  3.4e+04  6.7e-02 -6.7e+02 -4.7e+00  4.7e+04 -5.1e+00  5.1e+04  0.0e+00  0.0e+00 
 1.2e-07 -1.4e-01  1.4e+03  2.3e+00 -2.3e+04 -3.4e+00  3.4e+04  1.3e-01 -1.3e+03 -4.7e+00  4.7e+04 -5.8e+00  5.8e+04  0.0e+00  0.0e+00 
 1.2e-07 -3.2e-14  2.9e-10  2.3e+00 -2.3e+04 -3.4e+00  3.4e+04  2.0e-01 -2.0e+03 -4.8e+00  4.8e+04 -6.0e+00  6.0e+04  0.0e+00  0.0e+00 
 1.2e-07  1.6e-01 -1.6e+03  2.3e+00 -2.3e+04 -3.4e+00  3.4e+04  2.7e-01 -2.7e+03 -4.8e+00  4.8e+04 -5.7e+00  5.7e+04  0.0e+00  0.0e+00 
 1.2e-07  3.3e-01 -3.3e+03  2.3e+00 -2.3e+04 -3.4e+00  3.4e+04  3.3e-01 -3.3e+03 -4.8e+00  4.8e+04 -5.1e+00  5.1e+04  0.0e+00  0.0e+00 
 1.2e-07  4.8e-01 -4.8e+03  2.3e+00 -2.3e+04 -3.4e+00  3.4e+04  4.0e-01 -4.0e+03 -4.9e+00  4.9e+04 -4.5e+00  4.5e+04  0.0e+00  0.0e+00 
 1.2e-07  5.9e-01 -5.9e+03  2.3e+00 -2.3e+04 -3.4e+00  3.4e+04  4.7e-01 -4.7e+03 -4.9e+00  4.9e+04 -4.1e+00  4.1e+04  0.0e+00  0.0e+00 
 1.2e-07  6.5e-01 -6.5e+03  2.3e+00 -2.3e+04 -3.5e+00  3.5e+04  5.3e-01 -5.3e+03 -4.9e+00  4.9e+04 -4.0e+00  4.0e+04  0.0e+00  0.0e+00 
 1.3e-07  6.5e-01 -6.5e+03  2.3e+00 -2.3e+04 -3.5e+00  3.5e+04  6.0e-01 -6.0e+03 -5.0e+00  5.0e+04 -4.4e+00  4.4e+04  0.0e+00  0.0e+00 
 1.3e-07  5.8e-01 -5.8e+03  2.3e+00 -2.3e+04 -3.5e+00  3.5e+04  6.7e-01 -6.7e+03 -5.0e+00  5.0e+04 -4.9e+00  4.9e+04  0.0e+00  0.0e+00 
 1.3e-07  4.4e-01 -4.4e+03  2.3e+00 -2.3e+04 -3.5e+00  3.5e+04  7.3e-01 -7.3e+03 -5.0e+00  5.0e+04 -5.5e+00  5.5e+04  0.0e+00  0.0e+00 
 1.3e-07  2.4e-01 -2.4e+03  2.3e+00 -2.3e+04 -3.5e+00  3.5e+04  8.0e-01 -8.0e+03 -5.1e+00  5.1e+04 -5.9e+00  5.9e+04  0.0e+00  0.0e+00 
 1.3e-07  6.4e-14 -7.0e-10  2.3e+00 -2.3e+04 -3.5e+00  3.5e+04  8.7e-01 -8.7e+03 -5.1e+00  5.1e+04 -6.0e+00  6.0e+04  0.0e+00  0.0e+00 
 1.3e-07 -2.5e-01  2.5e+03  2.3e+00 -2.3e+04 -3.5e+00  3.5e+04  9.3e-01 -9.3e+03 -5.1e+00  5.1e+04 -5.8e+00  5.8e+04  0.0e+00  0.0e+00 
 1.3e-07 -5.0e-01  5.0e+03  2.3e+00 -2.3e+04 -3.5e+00  3.5e+04  1.0e+00 -1.0e+04 -5.2e+00  5.2e+04 -5.5e+00  5.5e+04  0.0e+00  0.0e+00 
 1.3e-07 -7.0e-01  7.0e+03  2.3e+00 -2.3e+04 -3.6e+00  3.6e+04  1.0e+00 -1.0e+04 -5.2e+00  5.2e+04 -5.0e+00  5.0e+04  0.0e+00  0.0e+00 
 1.3e-07 -8.4e-01  8.4e+03  2.3e+00 -2.3e+04 -3.6e+00  3.6e+04  1.0e+00 -1.0e+04 -5.3e+00  5.3e+04 -4.6e+00  4.6e+04  0.0e+00  0.0e+00 
 1.3e-07 -9.0e-01  9.0e+03  2.3e+00 -2.3e+04 -3.6e+00  3.6e+04  1.0e+00 -1.0e+04 -5.3e+00  5.3e+04 -4.2e+00  4.2e+04  0.0e+00  0.0e+00 
 1.4e-07 -8.8e-01  8.8e+03  2.3e+00 -2.3e+04 -3.6e+00  3.6e+04  1.0e+00 -1.0e+04 -5.3e+00  5.3e+04 -4.0e+00  4.0e+04  0.0e+00  0.0e+00 
 1.4e-07 -7.6e-01  7.6e+03  2.3e+00 -2.3e+04 -3.6e+00  3.6e+04  1.0e+00 -1.0e+04 -5.4e+00  5.4e+04 -4.0e+00  4.0e+04  0.0e+00  0.0e+00 
 1.4e-07 -5.6e-01  5.6e+03  2.3e+00 -2.3e+04 -3.6e+00  3.6e+04  1.0e+00 -1.0e+04 -5.4e+00  5.4e+04 -4.2e+00  4.2e+04  0.0e+00  0.0e+00 
 1.4e-07 -3.0e-01  3.0e+03  2.3e+00 -2.3e+04 -3.6e+00  3.6e+04  1.0e+00 -1.0e+04 -5.4e+00  5.4e+04 -4.4e+00  4.4e+04  0.0e+00  0.0e+00 
 1.4e-07 -9.9e-14  8.1e-10  2.3e+00 -2.3e+04 -3.6e+00  3.6e+04  1.0e+00 -1.0e+04 -5.5e+00  5.5e+04 -4.8e+00  4.8e+04  0.0e+00  0.0e+00 
 1.4e-07  3.0e-01 -3.0e+03  2.3e+00 -2.3e+04 -3.6e+00  3.6e+04  1.0e+00 -1.0e+04 -5.5e+00  5.5e+04 -5.2e+00  5.2e+04  0.0e+00  0.0e+00 
 1.4e-07  5.8e-01 -5.8e+03  2.3e+00 -2.3e+04 -3.6e+00  3.6e+04  1.0e+00 -1.0e+04 -5.5e+00  5.5e+04 -5.5e+00  5.5e+04  0.0e+00  0.0e+00 
 1.4e-07  8.1e-01 -8.1e+03  2.3e+00 -2.3e+04 -3.7e+00  3.7e+04  1.0e+00 -1.0e+04 -5.6e+00  5.6e+04 -5.8e+00  5.8e+04  0.0e+00  0.0e+00 
 1.4e-07  9.5e-01 -9.5e+03  2.3e+00 -2.3e+04 -3.7e+00  3.7e+04  1.0e+00 -1.0e+04 -5.6e+00  5.6e+04 -5.9e+00  5.9e+04  0.0e+00  0.0e+00 
