Title: KiCad schematic
Date: Sat Jul  9 04:01:57  2022
Plotname: AC Analysis
Flags: complex
No. Variables: 3
No. Points: 501
Variables:
	0	frequency	frequency grid=3
	1	v(/vin)	voltage
	2	v(vout)	voltage
Values:
 0	1.000000000000000e+01,0.000000000000000e+00
	5.955982044541454e-02,2.366694915567363e-01
	7.692607326096113e-03,-2.354985467593984e-02

 1	1.023292992280754e+01,0.000000000000000e+00
	6.219221675162925e-02,2.415043372839054e-01
	8.032774431257828e-03,-2.418529640699241e-02

 2	1.047128548050899e+01,0.000000000000000e+00
	6.493292534802939e-02,2.464074685425710e-01
	8.386954651720124e-03,-2.484122225417718e-02

 3	1.071519305237606e+01,0.000000000000000e+00
	6.778568246822940e-02,2.513777709351359e-01
	8.755633025778753e-03,-2.551845610016379e-02

 4	1.096478196143185e+01,0.000000000000000e+00
	7.075428872453043e-02,2.564139609135550e-01
	9.139303134052756e-03,-2.621785937507504e-02

 5	1.122018454301963e+01,0.000000000000000e+00
	7.384260399455110e-02,2.615145767057861e-01
	9.538466457831518e-03,-2.694033258931405e-02

 6	1.148153621496883e+01,0.000000000000000e+00
	7.705454160245560e-02,2.666779691324946e-01
	9.953631647670935e-03,-2.768681688908003e-02

 7	1.174897554939530e+01,0.000000000000000e+00
	8.039406175268229e-02,2.719022923539219e-01
	1.038531369685147e-02,-2.845829562974700e-02

 8	1.202264434617413e+01,0.000000000000000e+00
	8.386516417465019e-02,2.771854945922079e-01
	1.083403301443830e-02,-2.925579596135641e-02

 9	1.230268770812381e+01,0.000000000000000e+00
	8.747187993798945e-02,2.825253088801232e-01
	1.130031439274726e-02,-3.008039042002153e-02

 10	1.258925411794167e+01,0.000000000000000e+00
	9.121826239947355e-02,2.879192438931225e-01
	1.178468586431913e-02,-3.093319851813980e-02

 11	1.288249551693134e+01,0.000000000000000e+00
	9.510837724506624e-02,2.933645749277788e-01
	1.228767744372439e-02,-3.181538832551567e-02

 12	1.318256738556407e+01,0.000000000000000e+00
	9.914629159343005e-02,2.988583350960232e-01
	1.280981974993267e-02,-3.272817803278727e-02

 13	1.348962882591653e+01,0.000000000000000e+00
	1.033360621309206e-01,3.043973068110942e-01
	1.335164250545162e-02,-3.367283748758965e-02

 14	1.380384264602884e+01,0.000000000000000e+00
	1.076817222525745e-01,3.099780136476319e-01
	1.391367290898238e-02,-3.465068969320662e-02

 15	1.412537544622754e+01,0.000000000000000e+00
	1.121872681889716e-01,3.155967126648973e-01
	1.449643387909560e-02,-3.566311225846874e-02

 16	1.445439770745927e+01,0.000000000000000e+00
	1.168566441051391e-01,3.212493872884906e-01
	1.510044216716899e-02,-3.671153878700117e-02

 17	1.479108388168207e+01,0.000000000000000e+00
	1.216937261649472e-01,3.269317408521669e-01
	1.572620633883481e-02,-3.779746019301378e-02

 18	1.513561248436208e+01,0.000000000000000e+00
	1.267023055627390e-01,3.326391909072033e-01
	1.637422462413785e-02,-3.892242593012618e-02

 19	1.548816618912481e+01,0.000000000000000e+00
	1.318860705332886e-01,3.383668644121838e-01
	1.704498263797127e-02,-4.008804511903463e-02

 20	1.584893192461113e+01,0.000000000000000e+00
	1.372485873616039e-01,3.441095939208701e-01
	1.773895097354217e-02,-4.129598755923780e-02

 21	1.621810097358929e+01,0.000000000000000e+00
	1.427932804255735e-01,3.498619148898555e-01
	1.845658267316708e-02,-4.254798460947029e-02

 22	1.659586907437560e+01,0.000000000000000e+00
	1.485234113170022e-01,3.556180642308022e-01
	1.919831058229704e-02,-4.384582992117458e-02

 23	1.698243652461744e+01,0.000000000000000e+00
	1.544420571001185e-01,3.613719802340553e-01
	1.996454459442454e-02,-4.519138000900114e-02

 24	1.737800828749375e+01,0.000000000000000e+00
	1.605520877811413e-01,3.671173039911326e-01
	2.075566879634838e-02,-4.658655464238848e-02

 25	1.778279410038922e+01,0.000000000000000e+00
	1.668561430778167e-01,3.728473824428037e-01
	2.157203852526290e-02,-4.803333704221302e-02

 26	1.819700858609983e+01,0.000000000000000e+00
	1.733566085939119e-01,3.785552731770431e-01
	2.241397735122597e-02,-4.953377386689972e-02

 27	1.862087136662867e+01,0.000000000000000e+00
	1.800555915202787e-01,3.842337510968489e-01
	2.328177400064124e-02,-5.108997497304202e-02

 28	1.905460717963246e+01,0.000000000000000e+00
	1.869548960011153e-01,3.898753170716226e-01
	2.417567923861430e-02,-5.270411293615496e-02

 29	1.949844599758044e+01,0.000000000000000e+00
	1.940559983212134e-01,3.954722086773197e-01
	2.509590273022777e-02,-5.437842231850354e-02

 30	1.995262314968879e+01,0.000000000000000e+00
	2.013600220870453e-01,4.010164131198027e-01
	2.604260990298535e-02,-5.611519867224857e-02

 31	2.041737944669528e+01,0.000000000000000e+00
	2.088677135912046e-01,4.064996824226116e-01
	2.701591883481846e-02,-5.791679726783983e-02

 32	2.089296130854038e+01,0.000000000000000e+00
	2.165794175656542e-01,4.119135509446700e-01
	2.801589719404873e-02,-5.978563153964345e-02

 33	2.137962089502231e+01,0.000000000000000e+00
	2.244950535441026e-01,4.172493552752089e-01
	2.904255925966837e-02,-6.172417124311380e-02

 34	2.187761623949551e+01,0.000000000000000e+00
	2.326140930672506e-01,4.224982565324598e-01
	3.009586305202205e-02,-6.373494032048654e-02

 35	2.238721138568338e+01,0.000000000000000e+00
	2.409355379762144e-01,4.276512650694672e-01
	3.117570760539579e-02,-6.582051447499992e-02

 36	2.290867652767771e+01,0.000000000000000e+00
	2.494579000487631e-01,4.326992675648814e-01
	3.228193041529259e-02,-6.798351845678496e-02

 37	2.344228815319920e+01,0.000000000000000e+00
	2.581791822396818e-01,4.376330564489639e-01
	3.341430509403764e-02,-7.022662306745531e-02

 38	2.398832919019489e+01,0.000000000000000e+00
	2.670968617901970e-01,4.424433615855553e-01
	3.457253926872106e-02,-7.255254189363924e-02

 39	2.454708915685028e+01,0.000000000000000e+00
	2.762078754716089e-01,4.471208840997471e-01
	3.575627275564308e-02,-7.496402778430422e-02

 40	2.511886431509578e+01,0.000000000000000e+00
	2.855086072247184e-01,4.516563322088587e-01
	3.696507604496979e-02,-7.746386909048297e-02

 41	2.570395782768862e+01,0.000000000000000e+00
	2.949948784490252e-01,4.560404588815308e-01
	3.819844912819192e-02,-8.005488569029851e-02

 42	2.630267991895380e+01,0.000000000000000e+00
	3.046619411837662e-01,4.602641011168264e-01
	3.945582069968445e-02,-8.273992482647685e-02

 43	2.691534803926913e+01,0.000000000000000e+00
	3.145044744064958e-01,4.643182206027792e-01
	4.073654776133040e-02,-8.552185678756175e-02

 44	2.754228703338164e+01,0.000000000000000e+00
	3.245165836540131e-01,4.681939454824772e-01
	4.203991565674414e-02,-8.840357046833702e-02

 45	2.818382931264451e+01,0.000000000000000e+00
	3.346918041450108e-01,4.718826129261832e-01
	4.336513855818858e-02,-9.138796884850819e-02

 46	2.884031503126603e+01,0.000000000000000e+00
	3.450231075539921e-01,4.753758121808653e-01
	4.471136042555912e-02,-9.447796443230416e-02

 47	2.951209226666383e+01,0.000000000000000e+00
	3.555029125520031e-01,4.786654277445255e-01
	4.607765645245188e-02,-9.767647469475804e-02

 48	3.019951720402014e+01,0.000000000000000e+00
	3.661230991918924e-01,4.817436822925485e-01
	4.746303500941274e-02,-1.009864175829236e-01

 49	3.090295432513588e+01,0.000000000000000e+00
	3.768750271745961e-01,4.846031789675704e-01
	4.886644008941410e-02,-1.044107071225184e-01

 50	3.162277660168376e+01,0.000000000000000e+00
	3.877495579889491e-01,4.872369426336828e-01
	5.028675425457507e-02,-1.079522491816221e-01

 51	3.235936569296280e+01,0.000000000000000e+00
	3.987370808713658e-01,4.896384596906228e-01
	5.172280207774804e-02,-1.116139374439058e-01

 52	3.311311214825908e+01,0.000000000000000e+00
	4.098275424842319e-01,4.918017160443705e-01
	5.317335406601842e-02,-1.153986496436730e-01

 53	3.388441561392022e+01,0.000000000000000e+00
	4.210104801638043e-01,4.937212328375499e-01
	5.463713104749957e-02,-1.193092441144046e-01

 54	3.467368504525312e+01,0.000000000000000e+00
	4.322750585407363e-01,4.953920995563862e-01
	5.611280899609739e-02,-1.233485567000798e-01

 55	3.548133892335751e+01,0.000000000000000e+00
	4.436101092899933e-01,4.968100041507019e-01
	5.759902426380137e-02,-1.275193980771974e-01

 56	3.630780547701009e+01,0.000000000000000e+00
	4.550041737227782e-01,4.979712598294189e-01
	5.909437918356986e-02,-1.318245515308760e-01

 57	3.715352290971721e+01,0.000000000000000e+00
	4.664455478921437e-01,4.988728282259636e-01
	6.059744800124633e-02,-1.362667712251948e-01

 58	3.801893963205607e+01,0.000000000000000e+00
	4.779223298470779e-01,4.995123386654331e-01
	6.210678309001239e-02,-1.408487810027736e-01

 59	3.890451449942801e+01,0.000000000000000e+00
	4.894224686378201e-01,4.998881033077652e-01
	6.362092139662323e-02,-1.455732737433237e-01

 60	3.981071705534967e+01,0.000000000000000e+00
	5.009338146487554e-01,4.999991279877554e-01
	6.513839106590069e-02,-1.504429113049426e-01

 61	4.073802778041122e+01,0.000000000000000e+00
	5.124441708150062e-01,4.998451186227614e-01
	6.665771818629906e-02,-1.554603250652491e-01

 62	4.168693834703348e+01,0.000000000000000e+00
	5.239413442652973e-01,4.994264831113857e-01
	6.817743359903972e-02,-1.606281170732871e-01

 63	4.265795188015920e+01,0.000000000000000e+00
	5.354131979271214e-01,4.987443287003600e-01
	6.969607971121405e-02,-1.659488618159060e-01

 64	4.365158322401653e+01,0.000000000000000e+00
	5.468477016307800e-01,4.978004548512113e-01
	7.121221725410720e-02,-1.714251085952725e-01

 65	4.466835921509625e+01,0.000000000000000e+00
	5.582329822566308e-01,4.965973416920597e-01
	7.272443192884737e-02,-1.770593845075439e-01

 66	4.570881896148743e+01,0.000000000000000e+00
	5.695573724844797e-01,4.951381341920035e-01
	7.423134088310235e-02,-1.828541980060905e-01

 67	4.677351412871975e+01,0.000000000000000e+00
	5.808094577253584e-01,4.934266222450697e-01
	7.573159896578119e-02,-1.888120430261253e-01

 68	4.786300923226376e+01,0.000000000000000e+00
	5.919781208432633e-01,4.914672168966611e-01
	7.722390470971163e-02,-1.949354036419066e-01

 69	4.897788193684454e+01,0.000000000000000e+00
	6.030525843073293e-01,4.892649229870779e-01
	7.870700599695368e-02,-2.012267592222230e-01

 70	5.011872336272715e+01,0.000000000000000e+00
	6.140224494524896e-01,4.868253085232813e-01
	8.017970536593566e-02,-2.076885900455210e-01

 71	5.128613839913640e+01,0.000000000000000e+00
	6.248777325682278e-01,4.841544711210618e-01
	8.164086492508460e-02,-2.143233833318163e-01

 72	5.248074602497717e+01,0.000000000000000e+00
	6.356088975795606e-01,4.812590018847616e-01
	8.308941084340660e-02,-2.211336396449610e-01

 73	5.370317963702517e+01,0.000000000000000e+00
	6.462068851310564e-01,4.781459471103976e-01
	8.452433739432763e-02,-2.281218796180298e-01

 74	5.495408738576235e+01,0.000000000000000e+00
	6.566631379324637e-01,4.748227682103541e-01
	8.594471053541497e-02,-2.352906509505885e-01

 75	5.623413251903480e+01,0.000000000000000e+00
	6.669696222725704e-01,4.712973002637619e-01
	8.734967101274549e-02,-2.426425356284199e-01

 76	5.754399373371558e+01,0.000000000000000e+00
	6.771188456552278e-01,4.675777095964697e-01
	8.873843698466999e-02,-2.501801573145883e-01

 77	5.888436553555878e+01,0.000000000000000e+00
	6.871038705573489e-01,4.636724507884270e-01
	9.011030616589721e-02,-2.579061888622789e-01

 78	6.025595860743565e+01,0.000000000000000e+00
	6.969183243522635e-01,4.595902234947467e-01
	9.146465749806865e-02,-2.658233599010913e-01

 79	6.165950018614809e+01,0.000000000000000e+00
	7.065564054825314e-01,4.553399294502491e-01
	9.280095235861907e-02,-2.739344644511448e-01

 80	6.309573444801919e+01,0.000000000000000e+00
	7.160128860035422e-01,4.509306300064467e-01
	9.411873532456028e-02,-2.822423685215227e-01

 81	6.456542290346542e+01,0.000000000000000e+00
	7.252831106525748e-01,4.463715045253881e-01
	9.541763451137086e-02,-2.907500176523854e-01

 82	6.606934480075947e+01,0.000000000000000e+00
	7.343629926271298e-01,4.416718099272177e-01
	9.669736151223773e-02,-2.994604443654083e-01

 83	6.760829753919803e+01,0.000000000000000e+00
	7.432490062810267e-01,4.368408416583680e-01
	9.795771096506911e-02,-3.083767754888527e-01

 84	6.918309709189350e+01,0.000000000000000e+00
	7.519381769669421e-01,4.318878963157489e-01
	9.919855977762637e-02,-3.175022393292295e-01

 85	7.079457843841364e+01,0.000000000000000e+00
	7.604280682696775e-01,4.268222361297087e-01
	1.004198660433815e-01,-3.268401726651859e-01

 86	7.244359600749884e+01,0.000000000000000e+00
	7.687167668856654e-01,4.216530554756216e-01
	1.016216676821813e-01,-3.363940275437898e-01

 87	7.413102413009157e+01,0.000000000000000e+00
	7.768028654111376e-01,4.163894495512214e-01
	1.028040808402011e-01,-3.461673778628835e-01

 88	7.585775750291819e+01,0.000000000000000e+00
	7.846854433043192e-01,4.110403853248270e-01
	1.039672980850028e-01,-3.561639257288931e-01

 89	7.762471166286898e+01,0.000000000000000e+00
	7.923640462862189e-01,4.056146748288116e-01
	1.051115864307413e-01,-3.663875075815213e-01

 90	7.943282347242794e+01,0.000000000000000e+00
	7.998386644404409e-01,4.001209508434677e-01
	1.062372852283033e-01,-3.768421000823707e-01

 91	8.128305161640971e+01,0.000000000000000e+00
	8.071097092653080e-01,3.945676449891216e-01
	1.073448039547316e-01,-3.875318257669136e-01

 92	8.317637711026687e+01,0.000000000000000e+00
	8.141779899218780e-01,3.889629682192225e-01
	1.084346199343216e-01,-3.984609584629624e-01

 93	8.511380382023741e+01,0.000000000000000e+00
	8.210446889095229e-01,3.833148936843236e-01
	1.095072760231091e-01,-4.096339284825206e-01

 94	8.709635899560782e+01,0.000000000000000e+00
	8.277113373870715e-01,3.776311419165417e-01
	1.105633782863151e-01,-4.210553275944164e-01

 95	8.912509381337429e+01,0.000000000000000e+00
	8.341797903424508e-01,3.719191682662618e-01
	1.116035936967279e-01,-4.327299137906095e-01

 96	9.120108393559070e+01,0.000000000000000e+00
	8.404522017976748e-01,3.661861525075554e-01
	1.126286478798164e-01,-4.446626158586753e-01

 97	9.332543007969882e+01,0.000000000000000e+00
	8.465310002192801e-01,3.604389905159763e-01
	1.136393229295862e-01,-4.568585377748491e-01

 98	9.549925860214330e+01,0.000000000000000e+00
	8.524188642872234e-01,3.546842879119887e-01
	1.146364553167700e-01,-4.693229629365305e-01

 99	9.772372209558077e+01,0.000000000000000e+00
	8.581186991580814e-01,3.489283555551702e-01
	1.156209339093124e-01,-4.820613582485009e-01

 100	9.999999999999969e+01,0.000000000000000e+00
	8.636336133414446e-01,3.431772067683662e-01
	1.165936981224718e-01,-4.950793780847675e-01

 101	1.023292992280751e+02,0.000000000000000e+00
	8.689668962918364e-01,3.374365561669990e-01
	1.175557362144346e-01,-5.083828681428031e-01

 102	1.047128548050896e+02,0.000000000000000e+00
	8.741219968025340e-01,3.317118199665827e-01
	1.185080837409913e-01,-5.219778692119235e-01

 103	1.071519305237603e+02,0.000000000000000e+00
	8.791025022724588e-01,3.260081176409591e-01
	1.194518221812544e-01,-5.358706208739079e-01

 104	1.096478196143182e+02,0.000000000000000e+00
	8.839121189029668e-01,3.203302748047070e-01
	1.203880777446500e-01,-5.500675651563824e-01

 105	1.122018454301960e+02,0.000000000000000e+00
	8.885546528679673e-01,3.146828271953564e-01
	1.213180203677595e-01,-5.645753501598847e-01

 106	1.148153621496879e+02,0.000000000000000e+00
	8.930339924884441e-01,3.090700256343015e-01
	1.222428629082657e-01,-5.794008336766012e-01

 107	1.174897554939526e+02,0.000000000000000e+00
	8.973540914311242e-01,3.034958418494812e-01
	1.231638605419079e-01,-5.945510868210704e-01

 108	1.202264434617409e+02,0.000000000000000e+00
	9.015189529408062e-01,2.979639750477970e-01
	1.240823103674416e-01,-6.100333976914669e-01

 109	1.230268770812378e+02,0.000000000000000e+00
	9.055326151066692e-01,2.924778591307356e-01
	1.249995512230129e-01,-6.258552750796866e-01

 110	1.258925411794163e+02,0.000000000000000e+00
	9.093991371547608e-01,2.870406704525971e-01
	1.259169637174367e-01,-6.420244522487621e-01

 111	1.288249551693130e+02,0.000000000000000e+00
	9.131225867517578e-01,2.816553360269653e-01
	1.268359704781687e-01,-6.585488907935542e-01

 112	1.318256738556403e+02,0.000000000000000e+00
	9.167070282989305e-01,2.763245420935114e-01
	1.277580366180331e-01,-6.754367846032494e-01

 113	1.348962882591649e+02,0.000000000000000e+00
	9.201565121900442e-01,2.710507429637485e-01
	1.286846704218547e-01,-6.926965639406149e-01

 114	1.380384264602881e+02,0.000000000000000e+00
	9.234750650025720e-01,2.658361700708897e-01
	1.296174242538939e-01,-7.103368996540951e-01

 115	1.412537544622750e+02,0.000000000000000e+00
	9.266666805880337e-01,2.606828411554345e-01
	1.305578956869624e-01,-7.283667075382709e-01

 116	1.445439770745923e+02,0.000000000000000e+00
	9.297353120244739e-01,2.555925695244257e-01
	1.315077288539825e-01,-7.467951528564640e-01

 117	1.479108388168203e+02,0.000000000000000e+00
	9.326848643919462e-01,2.505669733284568e-01
	1.324686160225212e-01,-7.656316550414033e-01

 118	1.513561248436203e+02,0.000000000000000e+00
	9.355191883303440e-01,2.456074848064070e-01
	1.334422993933231e-01,-7.848858925862316e-01

 119	1.548816618912476e+02,0.000000000000000e+00
	9.382420743379292e-01,2.407153594535064e-01
	1.344305731237938e-01,-8.045678081401775e-01

 120	1.584893192461108e+02,0.000000000000000e+00
	9.408572477684094e-01,2.358916850736716e-01
	1.354352855778629e-01,-8.246876138235848e-01

 121	1.621810097358924e+02,0.000000000000000e+00
	9.433683644843289e-01,2.311373906820696e-01
	1.364583418039018e-01,-8.452557967728467e-01

 122	1.659586907437555e+02,0.000000000000000e+00
	9.457790071248324e-01,2.264532552285676e-01
	1.375017062427588e-01,-8.662831249309306e-01

 123	1.698243652461738e+02,0.000000000000000e+00
	9.480926819464595e-01,2.218399161170903e-01
	1.385674056688728e-01,-8.877806530956036e-01

 124	1.737800828749369e+02,0.000000000000000e+00
	9.503128161964932e-01,2.172978774999524e-01
	1.396575323672664e-01,-9.097597292388855e-01

 125	1.778279410038917e+02,0.000000000000000e+00
	9.524427559794877e-01,2.128275183299365e-01
	1.407742475506737e-01,-9.322320011107763e-01

 126	1.819700858609977e+02,0.000000000000000e+00
	9.544857645788549e-01,2.084291001562893e-01
	1.419197850209670e-01,-9.552094231407295e-01

 127	1.862087136662861e+02,0.000000000000000e+00
	9.564450211968181e-01,2.041027746538896e-01
	1.430964550807730e-01,-9.787042636531282e-01

 128	1.905460717963240e+02,0.000000000000000e+00
	9.583236200775599e-01,1.998485908776302e-01
	1.443066487002227e-01,-1.002729112406485e+00

 129	1.949844599758038e+02,0.000000000000000e+00
	9.601245699799978e-01,1.956665022365601e-01
	1.455528419471079e-01,-1.027296888476144e+00

 130	1.995262314968872e+02,0.000000000000000e+00
	9.618507939682842e-01,1.915563731845735e-01
	1.468376006870145e-01,-1.052420848494251e+00

 131	2.041737944669522e+02,0.000000000000000e+00
	9.635051294898136e-01,1.875179856264124e-01
	1.481635855628838e-01,-1.078114595260274e+00

 132	2.089296130854032e+02,0.000000000000000e+00
	9.650903287122385e-01,1.835510450395007e-01
	1.495335572632541e-01,-1.104392086745179e+00

 133	2.137962089502224e+02,0.000000000000000e+00
	9.666090590926746e-01,1.796551863136564e-01
	1.509503820901870e-01,-1.131267645500259e+00

 134	2.187761623949544e+02,0.000000000000000e+00
	9.680639041539773e-01,1.758299793120534e-01
	1.524170378385747e-01,-1.158755968495711e+00

 135	2.238721138568331e+02,0.000000000000000e+00
	9.694573644446063e-01,1.720749341579416e-01
	1.539366199995627e-01,-1.186872137404180e+00

 136	2.290867652767764e+02,0.000000000000000e+00
	9.707918586602103e-01,1.683895062526049e-01
	1.555123483028424e-01,-1.215631629353027e+00

 137	2.344228815319913e+02,0.000000000000000e+00
	9.720697249066150e-01,1.647731010308418e-01
	1.571475736125052e-01,-1.245050328168759e+00

 138	2.398832919019481e+02,0.000000000000000e+00
	9.732932220854125e-01,1.612250784609248e-01
	1.588457851940248e-01,-1.275144536133212e+00

 139	2.454708915685021e+02,0.000000000000000e+00
	9.744645313847761e-01,1.577447572965382e-01
	1.606106183697236e-01,-1.305930986282533e+00

 140	2.511886431509570e+02,0.000000000000000e+00
	9.755857578595164e-01,1.543314190886110e-01
	1.624458625834393e-01,-1.337426855274089e+00

