 time       v(/in)     v(/out)   
 0.000e+00  0.000e+00  5.604e+00 
 1.000e-06  6.278e-04  5.569e+00 
 2.000e-06  1.253e-03  5.537e+00 
 3.000e-06  1.873e-03  5.506e+00 
 4.000e-06  2.486e-03  5.478e+00 
 5.000e-06  3.089e-03  5.451e+00 
 6.000e-06  3.680e-03  5.427e+00 
 7.000e-06  4.256e-03  5.404e+00 
 8.000e-06  4.816e-03  5.384e+00 
 9.000e-06  5.356e-03  5.367e+00 
 1.000e-05  5.876e-03  5.351e+00 
 1.100e-05  6.372e-03  5.337e+00 
 1.200e-05  6.843e-03  5.326e+00 
 1.300e-05  7.287e-03  5.317e+00 
 1.400e-05  7.702e-03  5.310e+00 
 1.500e-05  8.087e-03  5.305e+00 
 1.600e-05  8.440e-03  5.302e+00 
 1.700e-05  8.760e-03  5.301e+00 
 1.800e-05  9.045e-03  5.303e+00 
 1.900e-05  9.294e-03  5.306e+00 
 2.000e-05  9.507e-03  5.311e+00 
 2.100e-05  9.682e-03  5.318e+00 
 2.200e-05  9.819e-03  5.326e+00 
 2.300e-05  9.917e-03  5.336e+00 
 2.400e-05  9.976e-03  5.348e+00 
 2.500e-05  9.996e-03  5.362e+00 
 2.600e-05  9.976e-03  5.377e+00 
 2.700e-05  9.917e-03  5.393e+00 
 2.800e-05  9.819e-03  5.410e+00 
 2.900e-05  9.682e-03  5.429e+00 
 3.000e-05  9.507e-03  5.448e+00 
 3.100e-05  9.294e-03  5.469e+00 
 3.200e-05  9.045e-03  5.490e+00 
 3.300e-05  8.760e-03  5.512e+00 
 3.400e-05  8.440e-03  5.534e+00 
 3.500e-05  8.087e-03  5.557e+00 
 3.600e-05  7.702e-03  5.581e+00 
 3.700e-05  7.287e-03  5.605e+00 
 3.800e-05  6.843e-03  5.629e+00 
 3.900e-05  6.372e-03  5.653e+00 
 4.000e-05  5.875e-03  5.677e+00 
 4.100e-05  5.356e-03  5.700e+00 
 4.200e-05  4.816e-03  5.724e+00 
 4.300e-05  4.256e-03  5.747e+00 
 4.400e-05  3.680e-03  5.770e+00 
 4.500e-05  3.089e-03  5.792e+00 
 4.600e-05  2.486e-03  5.814e+00 
 4.700e-05  1.873e-03  5.835e+00 
 4.800e-05  1.253e-03  5.855e+00 
 4.900e-05  6.276e-04  5.874e+00 
 5.000e-05 -3.667e-08  5.893e+00 
 5.100e-05 -6.277e-04  5.910e+00 
 5.200e-05 -1.253e-03  5.926e+00 
 5.300e-05 -1.873e-03  5.941e+00 
 5.400e-05 -2.486e-03  5.955e+00 
 5.500e-05 -3.089e-03  5.968e+00 
 5.600e-05 -3.680e-03  5.979e+00 
 5.700e-05 -4.256e-03  5.989e+00 
 5.800e-05 -4.816e-03  5.997e+00 
 5.900e-05 -5.356e-03  6.004e+00 
 6.000e-05 -5.876e-03  6.010e+00 
 6.100e-05 -6.372e-03  6.014e+00 
 6.200e-05 -6.843e-03  6.017e+00 
 6.300e-05 -7.287e-03  6.018e+00 
 6.400e-05 -7.702e-03  6.017e+00 
 6.500e-05 -8.087e-03  6.015e+00 
 6.600e-05 -8.440e-03  6.012e+00 
 6.700e-05 -8.760e-03  6.007e+00 
 6.800e-05 -9.045e-03  6.000e+00 
 6.900e-05 -9.294e-03  5.992e+00 
 7.000e-05 -9.507e-03  5.983e+00 
 7.100e-05 -9.682e-03  5.972e+00 
 7.200e-05 -9.819e-03  5.959e+00 
 7.300e-05 -9.917e-03  5.945e+00 
 7.400e-05 -9.976e-03  5.930e+00 
 7.500e-05 -9.996e-03  5.914e+00 
 7.600e-05 -9.976e-03  5.896e+00 
 7.700e-05 -9.917e-03  5.878e+00 
 7.800e-05 -9.819e-03  5.858e+00 
 7.900e-05 -9.682e-03  5.837e+00 
 8.000e-05 -9.507e-03  5.815e+00 
 8.100e-05 -9.294e-03  5.792e+00 
 8.200e-05 -9.045e-03  5.769e+00 
 8.300e-05 -8.760e-03  5.745e+00 
 8.400e-05 -8.440e-03  5.720e+00 
 8.500e-05 -8.087e-03  5.695e+00 
 8.600e-05 -7.702e-03  5.669e+00 
 8.700e-05 -7.287e-03  5.643e+00 
 8.800e-05 -6.843e-03  5.617e+00 
 8.900e-05 -6.372e-03  5.590e+00 
 9.000e-05 -5.875e-03  5.564e+00 
 9.100e-05 -5.356e-03  5.538e+00 
 9.200e-05 -4.816e-03  5.512e+00 
 9.300e-05 -4.256e-03  5.486e+00 
 9.400e-05 -3.680e-03  5.461e+00 
 9.500e-05 -3.089e-03  5.437e+00 
 9.600e-05 -2.486e-03  5.413e+00 
 9.700e-05 -1.873e-03  5.389e+00 
 9.800e-05 -1.253e-03  5.367e+00 
 9.900e-05 -6.276e-04  5.346e+00 
 1.000e-04  3.667e-08  5.325e+00 
 1.010e-04  6.277e-04  5.306e+00 
 1.020e-04  1.253e-03  5.288e+00 
 1.030e-04  1.873e-03  5.271e+00 
 1.040e-04  2.486e-03  5.256e+00 
 1.050e-04  3.089e-03  5.242e+00 
 1.060e-04  3.680e-03  5.229e+00 
 1.070e-04  4.256e-03  5.218e+00 
 1.080e-04  4.816e-03  5.209e+00 
 1.090e-04  5.356e-03  5.201e+00 
 1.100e-04  5.876e-03  5.195e+00 
 1.110e-04  6.372e-03  5.191e+00 
 1.120e-04  6.843e-03  5.188e+00 
 1.130e-04  7.287e-03  5.187e+00 
 1.140e-04  7.702e-03  5.188e+00 
 1.150e-04  8.087e-03  5.190e+00 
 1.160e-04  8.440e-03  5.194e+00 
 1.170e-04  8.760e-03  5.200e+00 
 1.180e-04  9.045e-03  5.207e+00 
 1.190e-04  9.294e-03  5.216e+00 
 1.200e-04  9.507e-03  5.226e+00 
 1.210e-04  9.682e-03  5.238e+00 
 1.220e-04  9.819e-03  5.251e+00 
 1.230e-04  9.917e-03  5.266e+00 
 1.240e-04  9.976e-03  5.282e+00 
 1.250e-04  9.996e-03  5.300e+00 
 1.260e-04  9.976e-03  5.318e+00 
 1.270e-04  9.917e-03  5.338e+00 
 1.280e-04  9.819e-03  5.359e+00 
 1.290e-04  9.682e-03  5.380e+00 
 1.300e-04  9.507e-03  5.403e+00 
 1.310e-04  9.294e-03  5.426e+00 
 1.320e-04  9.045e-03  5.450e+00 
 1.330e-04  8.760e-03  5.474e+00 
 1.340e-04  8.440e-03  5.499e+00 
 1.350e-04  8.087e-03  5.524e+00 
 1.360e-04  7.702e-03  5.550e+00 
 1.370e-04  7.287e-03  5.575e+00 
 1.380e-04  6.843e-03  5.601e+00 
 1.390e-04  6.372e-03  5.627e+00 
 1.400e-04  5.875e-03  5.652e+00 
 1.410e-04  5.356e-03  5.677e+00 
 1.420e-04  4.816e-03  5.702e+00 
 1.430e-04  4.256e-03  5.727e+00 
 1.440e-04  3.680e-03  5.751e+00 
 1.450e-04  3.089e-03  5.774e+00 
 1.460e-04  2.486e-03  5.797e+00 
 1.470e-04  1.873e-03  5.819e+00 
 1.480e-04  1.253e-03  5.840e+00 
 1.490e-04  6.276e-04  5.860e+00 
 1.500e-04 -3.667e-08  5.879e+00 
 1.510e-04 -6.277e-04  5.897e+00 
 1.520e-04 -1.253e-03  5.914e+00 
 1.530e-04 -1.873e-03  5.930e+00 
 1.540e-04 -2.486e-03  5.944e+00 
 1.550e-04 -3.089e-03  5.958e+00 
 1.560e-04 -3.680e-03  5.969e+00 
 1.570e-04 -4.256e-03  5.980e+00 
 1.580e-04 -4.816e-03  5.989e+00 
 1.590e-04 -5.356e-03  5.996e+00 
 1.600e-04 -5.876e-03  6.002e+00 
 1.610e-04 -6.372e-03  6.007e+00 
 1.620e-04 -6.843e-03  6.010e+00 
 1.630e-04 -7.287e-03  6.011e+00 
 1.640e-04 -7.702e-03  6.011e+00 
 1.650e-04 -8.087e-03  6.010e+00 
 1.660e-04 -8.440e-03  6.006e+00 
 1.670e-04 -8.760e-03  6.002e+00 
 1.680e-04 -9.045e-03  5.995e+00 
 1.690e-04 -9.294e-03  5.987e+00 
 1.700e-04 -9.507e-03  5.978e+00 
 1.710e-04 -9.682e-03  5.967e+00 
 1.720e-04 -9.819e-03  5.955e+00 
 1.730e-04 -9.917e-03  5.942e+00 
 1.740e-04 -9.976e-03  5.927e+00 
 1.750e-04 -9.996e-03  5.911e+00 
 1.760e-04 -9.976e-03  5.893e+00 
 1.770e-04 -9.917e-03  5.875e+00 
 1.780e-04 -9.819e-03  5.855e+00 
 1.790e-04 -9.682e-03  5.834e+00 
 1.800e-04 -9.507e-03  5.812e+00 
 1.810e-04 -9.294e-03  5.790e+00 
 1.820e-04 -9.045e-03  5.767e+00 
 1.830e-04 -8.760e-03  5.742e+00 
 1.840e-04 -8.440e-03  5.718e+00 
 1.850e-04 -8.087e-03  5.693e+00 
 1.860e-04 -7.702e-03  5.667e+00 
 1.870e-04 -7.287e-03  5.641e+00 
 1.880e-04 -6.843e-03  5.615e+00 
 1.890e-04 -6.372e-03  5.589e+00 
 1.900e-04 -5.875e-03  5.563e+00 
 1.910e-04 -5.356e-03  5.537e+00 
 1.920e-04 -4.816e-03  5.511e+00 
 1.930e-04 -4.256e-03  5.485e+00 
 1.940e-04 -3.680e-03  5.460e+00 
 1.950e-04 -3.089e-03  5.436e+00 
 1.960e-04 -2.486e-03  5.412e+00 
 1.970e-04 -1.873e-03  5.388e+00 
 1.980e-04 -1.253e-03  5.366e+00 
 1.990e-04 -6.276e-04  5.345e+00 
 2.000e-04  3.667e-08  5.325e+00 
 2.010e-04  6.277e-04  5.305e+00 
 2.020e-04  1.253e-03  5.287e+00 
 2.030e-04  1.873e-03  5.271e+00 
 2.040e-04  2.486e-03  5.255e+00 
 2.050e-04  3.089e-03  5.241e+00 
 2.060e-04  3.680e-03  5.229e+00 
 2.070e-04  4.256e-03  5.218e+00 
 2.080e-04  4.816e-03  5.209e+00 
 2.090e-04  5.356e-03  5.201e+00 
 2.100e-04  5.876e-03  5.195e+00 
 2.110e-04  6.372e-03  5.190e+00 
 2.120e-04  6.843e-03  5.188e+00 
 2.130e-04  7.287e-03  5.187e+00 
 2.140e-04  7.702e-03  5.187e+00 
 2.150e-04  8.087e-03  5.190e+00 
 2.160e-04  8.440e-03  5.194e+00 
 2.170e-04  8.760e-03  5.199e+00 
 2.180e-04  9.045e-03  5.207e+00 
 2.190e-04  9.294e-03  5.215e+00 
 2.200e-04  9.507e-03  5.226e+00 
 2.210e-04  9.682e-03  5.238e+00 
 2.220e-04  9.819e-03  5.251e+00 
 2.230e-04  9.917e-03  5.266e+00 
 2.240e-04  9.976e-03  5.282e+00 
 2.250e-04  9.996e-03  5.299e+00 
 2.260e-04  9.976e-03  5.318e+00 
 2.270e-04  9.917e-03  5.338e+00 
 2.280e-04  9.819e-03  5.358e+00 
 2.290e-04  9.682e-03  5.380e+00 
 2.300e-04  9.507e-03  5.402e+00 
 2.310e-04  9.294e-03  5.426e+00 
 2.320e-04  9.045e-03  5.450e+00 
 2.330e-04  8.760e-03  5.474e+00 
 2.340e-04  8.440e-03  5.499e+00 
 2.350e-04  8.087e-03  5.524e+00 
 2.360e-04  7.702e-03  5.550e+00 
 2.370e-04  7.287e-03  5.575e+00 
 2.380e-04  6.843e-03  5.601e+00 
 2.390e-04  6.372e-03  5.627e+00 
 2.400e-04  5.875e-03  5.652e+00 
 2.410e-04  5.356e-03  5.677e+00 
 2.420e-04  4.816e-03  5.702e+00 
 2.430e-04  4.256e-03  5.727e+00 
 2.440e-04  3.680e-03  5.751e+00 
 2.450e-04  3.089e-03  5.774e+00 
 2.460e-04  2.486e-03  5.797e+00 
 2.470e-04  1.873e-03  5.819e+00 
 2.480e-04  1.253e-03  5.840e+00 
 2.490e-04  6.276e-04  5.860e+00 
 2.500e-04 -3.667e-08  5.879e+00 
 2.510e-04 -6.277e-04  5.897e+00 
 2.520e-04 -1.253e-03  5.914e+00 
 2.530e-04 -1.873e-03  5.930e+00 
 2.540e-04 -2.486e-03  5.944e+00 
 2.550e-04 -3.089e-03  5.958e+00 
 2.560e-04 -3.680e-03  5.969e+00 
 2.570e-04 -4.256e-03  5.980e+00 
 2.580e-04 -4.816e-03  5.989e+00 
 2.590e-04 -5.356e-03  5.996e+00 
 2.600e-04 -5.876e-03  6.002e+00 
 2.610e-04 -6.372e-03  6.007e+00 
 2.620e-04 -6.843e-03  6.010e+00 
 2.630e-04 -7.287e-03  6.011e+00 
 2.640e-04 -7.702e-03  6.011e+00 
 2.650e-04 -8.087e-03  6.010e+00 
 2.660e-04 -8.440e-03  6.006e+00 
 2.670e-04 -8.760e-03  6.002e+00 
 2.680e-04 -9.045e-03  5.995e+00 
 2.690e-04 -9.294e-03  5.987e+00 
 2.700e-04 -9.507e-03  5.978e+00 
 2.710e-04 -9.682e-03  5.967e+00 
 2.720e-04 -9.819e-03  5.955e+00 
 2.730e-04 -9.917e-03  5.942e+00 
 2.740e-04 -9.976e-03  5.927e+00 
 2.750e-04 -9.996e-03  5.911e+00 
 2.760e-04 -9.976e-03  5.893e+00 
 2.770e-04 -9.917e-03  5.875e+00 
 2.780e-04 -9.819e-03  5.855e+00 
 2.790e-04 -9.682e-03  5.834e+00 
 2.800e-04 -9.507e-03  5.812e+00 
 2.810e-04 -9.294e-03  5.790e+00 
 2.820e-04 -9.045e-03  5.766e+00 
 2.830e-04 -8.760e-03  5.742e+00 
 2.840e-04 -8.440e-03  5.718e+00 
 2.850e-04 -8.087e-03  5.693e+00 
 2.860e-04 -7.702e-03  5.667e+00 
 2.870e-04 -7.287e-03  5.641e+00 
 2.880e-04 -6.843e-03  5.615e+00 
 2.890e-04 -6.372e-03  5.589e+00 
 2.900e-04 -5.875e-03  5.563e+00 
 2.910e-04 -5.356e-03  5.537e+00 
 2.920e-04 -4.816e-03  5.511e+00 
 2.930e-04 -4.256e-03  5.485e+00 
 2.940e-04 -3.680e-03  5.460e+00 
 2.950e-04 -3.089e-03  5.436e+00 
 2.960e-04 -2.486e-03  5.412e+00 
 2.970e-04 -1.873e-03  5.388e+00 
 2.980e-04 -1.253e-03  5.366e+00 
 2.990e-04 -6.276e-04  5.345e+00 
 3.000e-04  3.667e-08  5.325e+00 
 3.010e-04  6.277e-04  5.305e+00 
 3.020e-04  1.253e-03  5.287e+00 
 3.030e-04  1.873e-03  5.271e+00 
 3.040e-04  2.486e-03  5.255e+00 
 3.050e-04  3.089e-03  5.241e+00 
 3.060e-04  3.680e-03  5.229e+00 
 3.070e-04  4.256e-03  5.218e+00 
 3.080e-04  4.816e-03  5.209e+00 
 3.090e-04  5.356e-03  5.201e+00 
 3.100e-04  5.876e-03  5.195e+00 
 3.110e-04  6.372e-03  5.190e+00 
 3.120e-04  6.843e-03  5.188e+00 
 3.130e-04  7.287e-03  5.187e+00 
 3.140e-04  7.702e-03  5.187e+00 
 3.150e-04  8.087e-03  5.190e+00 
 3.160e-04  8.440e-03  5.194e+00 
 3.170e-04  8.760e-03  5.199e+00 
 3.180e-04  9.045e-03  5.206e+00 
 3.190e-04  9.294e-03  5.215e+00 
 3.200e-04  9.507e-03  5.226e+00 
 3.210e-04  9.682e-03  5.238e+00 
 3.220e-04  9.819e-03  5.251e+00 
 3.230e-04  9.917e-03  5.266e+00 
 3.240e-04  9.976e-03  5.282e+00 
 3.250e-04  9.996e-03  5.299e+00 
 3.260e-04  9.976e-03  5.318e+00 
 3.270e-04  9.917e-03  5.338e+00 
 3.280e-04  9.819e-03  5.358e+00 
 3.290e-04  9.682e-03  5.380e+00 
 3.300e-04  9.507e-03  5.402e+00 
 3.310e-04  9.294e-03  5.426e+00 
 3.320e-04  9.045e-03  5.450e+00 
 3.330e-04  8.760e-03  5.474e+00 
 3.340e-04  8.440e-03  5.499e+00 
 3.350e-04  8.087e-03  5.524e+00 
 3.360e-04  7.702e-03  5.550e+00 
 3.370e-04  7.287e-03  5.575e+00 
 3.380e-04  6.843e-03  5.601e+00 
 3.390e-04  6.372e-03  5.627e+00 
 3.400e-04  5.875e-03  5.652e+00 
 3.410e-04  5.356e-03  5.677e+00 
 3.420e-04  4.816e-03  5.702e+00 
 3.430e-04  4.256e-03  5.727e+00 
 3.440e-04  3.680e-03  5.751e+00 
 3.450e-04  3.089e-03  5.774e+00 
 3.460e-04  2.486e-03  5.797e+00 
 3.470e-04  1.873e-03  5.819e+00 
 3.480e-04  1.253e-03  5.840e+00 
 3.490e-04  6.276e-04  5.860e+00 
 3.500e-04 -3.667e-08  5.879e+00 
 3.510e-04 -6.277e-04  5.897e+00 
 3.520e-04 -1.253e-03  5.914e+00 
 3.530e-04 -1.873e-03  5.930e+00 
 3.540e-04 -2.486e-03  5.944e+00 
 3.550e-04 -3.089e-03  5.958e+00 
 3.560e-04 -3.680e-03  5.969e+00 
 3.570e-04 -4.256e-03  5.980e+00 
 3.580e-04 -4.816e-03  5.989e+00 
 3.590e-04 -5.356e-03  5.996e+00 
 3.600e-04 -5.876e-03  6.002e+00 
 3.610e-04 -6.372e-03  6.007e+00 
 3.620e-04 -6.843e-03  6.010e+00 
 3.630e-04 -7.287e-03  6.011e+00 
 3.640e-04 -7.702e-03  6.011e+00 
 3.650e-04 -8.087e-03  6.010e+00 
 3.660e-04 -8.440e-03  6.006e+00 
 3.670e-04 -8.760e-03  6.002e+00 
 3.680e-04 -9.045e-03  5.995e+00 
 3.690e-04 -9.294e-03  5.987e+00 
 3.700e-04 -9.507e-03  5.978e+00 
 3.710e-04 -9.682e-03  5.967e+00 
 3.720e-04 -9.819e-03  5.955e+00 
 3.730e-04 -9.917e-03  5.942e+00 
 3.740e-04 -9.976e-03  5.927e+00 
 3.750e-04 -9.996e-03  5.911e+00 
 3.760e-04 -9.976e-03  5.893e+00 
 3.770e-04 -9.917e-03  5.875e+00 
 3.780e-04 -9.819e-03  5.855e+00 
 3.790e-04 -9.682e-03  5.834e+00 
 3.800e-04 -9.507e-03  5.812e+00 
 3.810e-04 -9.294e-03  5.790e+00 
 3.820e-04 -9.045e-03  5.766e+00 
 3.830e-04 -8.760e-03  5.742e+00 
 3.840e-04 -8.440e-03  5.718e+00 
 3.850e-04 -8.087e-03  5.693e+00 
 3.860e-04 -7.702e-03  5.667e+00 
 3.870e-04 -7.287e-03  5.641e+00 
 3.880e-04 -6.843e-03  5.615e+00 
 3.890e-04 -6.372e-03  5.589e+00 
 3.900e-04 -5.875e-03  5.563e+00 
 3.910e-04 -5.356e-03  5.537e+00 
 3.920e-04 -4.816e-03  5.511e+00 
 3.930e-04 -4.256e-03  5.485e+00 
 3.940e-04 -3.680e-03  5.460e+00 
 3.950e-04 -3.089e-03  5.436e+00 
 3.960e-04 -2.486e-03  5.412e+00 
 3.970e-04 -1.873e-03  5.388e+00 
 3.980e-04 -1.253e-03  5.366e+00 
 3.990e-04 -6.276e-04  5.345e+00 
 4.000e-04  3.667e-08  5.325e+00 
 4.010e-04  6.277e-04  5.305e+00 
 4.020e-04  1.253e-03  5.287e+00 
 4.030e-04  1.873e-03  5.271e+00 
 4.040e-04  2.486e-03  5.255e+00 
 4.050e-04  3.089e-03  5.241e+00 
 4.060e-04  3.680e-03  5.229e+00 
 4.070e-04  4.256e-03  5.218e+00 
 4.080e-04  4.816e-03  5.209e+00 
 4.090e-04  5.356e-03  5.201e+00 
 4.100e-04  5.876e-03  5.195e+00 
 4.110e-04  6.372e-03  5.190e+00 
 4.120e-04  6.843e-03  5.188e+00 
 4.130e-04  7.287e-03  5.187e+00 
 4.140e-04  7.702e-03  5.187e+00 
 4.150e-04  8.087e-03  5.190e+00 
 4.160e-04  8.440e-03  5.194e+00 
 4.170e-04  8.760e-03  5.199e+00 
 4.180e-04  9.045e-03  5.206e+00 
 4.190e-04  9.294e-03  5.215e+00 
 4.200e-04  9.507e-03  5.226e+00 
 4.210e-04  9.682e-03  5.238e+00 
 4.220e-04  9.819e-03  5.251e+00 
 4.230e-04  9.917e-03  5.266e+00 
 4.240e-04  9.976e-03  5.282e+00 
 4.250e-04  9.996e-03  5.299e+00 
 4.260e-04  9.976e-03  5.318e+00 
 4.270e-04  9.917e-03  5.338e+00 
 4.280e-04  9.819e-03  5.358e+00 
 4.290e-04  9.682e-03  5.380e+00 
 4.300e-04  9.507e-03  5.402e+00 
 4.310e-04  9.294e-03  5.426e+00 
 4.320e-04  9.045e-03  5.450e+00 
 4.330e-04  8.760e-03  5.474e+00 
 4.340e-04  8.440e-03  5.499e+00 
 4.350e-04  8.087e-03  5.524e+00 
 4.360e-04  7.702e-03  5.550e+00 
 4.370e-04  7.287e-03  5.575e+00 
 4.380e-04  6.843e-03  5.601e+00 
 4.390e-04  6.372e-03  5.627e+00 
 4.400e-04  5.875e-03  5.652e+00 
 4.410e-04  5.356e-03  5.677e+00 
 4.420e-04  4.816e-03  5.702e+00 
 4.430e-04  4.256e-03  5.727e+00 
 4.440e-04  3.680e-03  5.751e+00 
 4.450e-04  3.089e-03  5.774e+00 
 4.460e-04  2.486e-03  5.797e+00 
 4.470e-04  1.873e-03  5.819e+00 
 4.480e-04  1.253e-03  5.840e+00 
 4.490e-04  6.276e-04  5.860e+00 
 4.500e-04 -3.667e-08  5.879e+00 
 4.510e-04 -6.277e-04  5.897e+00 
 4.520e-04 -1.253e-03  5.914e+00 
 4.530e-04 -1.873e-03  5.930e+00 
 4.540e-04 -2.486e-03  5.944e+00 
 4.550e-04 -3.089e-03  5.958e+00 
 4.560e-04 -3.680e-03  5.969e+00 
 4.570e-04 -4.256e-03  5.980e+00 
 4.580e-04 -4.816e-03  5.989e+00 
 4.590e-04 -5.356e-03  5.996e+00 
 4.600e-04 -5.876e-03  6.002e+00 
 4.610e-04 -6.372e-03  6.007e+00 
 4.620e-04 -6.843e-03  6.010e+00 
 4.630e-04 -7.287e-03  6.011e+00 
 4.640e-04 -7.702e-03  6.011e+00 
 4.650e-04 -8.087e-03  6.010e+00 
 4.660e-04 -8.440e-03  6.006e+00 
 4.670e-04 -8.760e-03  6.002e+00 
 4.680e-04 -9.045e-03  5.995e+00 
 4.690e-04 -9.294e-03  5.987e+00 
 4.700e-04 -9.507e-03  5.978e+00 
 4.710e-04 -9.682e-03  5.967e+00 
 4.720e-04 -9.819e-03  5.955e+00 
 4.730e-04 -9.917e-03  5.942e+00 
 4.740e-04 -9.976e-03  5.927e+00 
 4.750e-04 -9.996e-03  5.911e+00 
 4.760e-04 -9.976e-03  5.893e+00 
 4.770e-04 -9.917e-03  5.875e+00 
 4.780e-04 -9.819e-03  5.855e+00 
 4.790e-04 -9.682e-03  5.834e+00 
 4.800e-04 -9.507e-03  5.812e+00 
 4.810e-04 -9.294e-03  5.790e+00 
 4.820e-04 -9.045e-03  5.766e+00 
 4.830e-04 -8.760e-03  5.742e+00 
 4.840e-04 -8.440e-03  5.718e+00 
 4.850e-04 -8.087e-03  5.693e+00 
 4.860e-04 -7.702e-03  5.667e+00 
 4.870e-04 -7.287e-03  5.641e+00 
 4.880e-04 -6.843e-03  5.615e+00 
 4.890e-04 -6.372e-03  5.589e+00 
 4.900e-04 -5.875e-03  5.563e+00 
 4.910e-04 -5.356e-03  5.537e+00 
 4.920e-04 -4.816e-03  5.511e+00 
 4.930e-04 -4.256e-03  5.485e+00 
 4.940e-04 -3.680e-03  5.460e+00 
 4.950e-04 -3.089e-03  5.436e+00 
 4.960e-04 -2.486e-03  5.412e+00 
 4.970e-04 -1.873e-03  5.388e+00 
 4.980e-04 -1.253e-03  5.366e+00 
 4.990e-04 -6.276e-04  5.345e+00 
 5.000e-04  3.667e-08  5.325e+00 
 5.010e-04  6.277e-04  5.305e+00 
 5.020e-04  1.253e-03  5.287e+00 
 5.030e-04  1.873e-03  5.271e+00 
 5.040e-04  2.486e-03  5.255e+00 
 5.050e-04  3.089e-03  5.241e+00 
 5.060e-04  3.680e-03  5.229e+00 
 5.070e-04  4.256e-03  5.218e+00 
 5.080e-04  4.816e-03  5.209e+00 
 5.090e-04  5.356e-03  5.201e+00 
 5.100e-04  5.876e-03  5.195e+00 
 5.110e-04  6.372e-03  5.190e+00 
 5.120e-04  6.843e-03  5.188e+00 
 5.130e-04  7.287e-03  5.187e+00 
 5.140e-04  7.702e-03  5.187e+00 
 5.150e-04  8.087e-03  5.190e+00 
 5.160e-04  8.440e-03  5.194e+00 
 5.170e-04  8.760e-03  5.199e+00 
 5.180e-04  9.045e-03  5.206e+00 
 5.190e-04  9.294e-03  5.215e+00 
 5.200e-04  9.507e-03  5.226e+00 
 5.210e-04  9.682e-03  5.238e+00 
 5.220e-04  9.819e-03  5.251e+00 
 5.230e-04  9.917e-03  5.266e+00 
 5.240e-04  9.976e-03  5.282e+00 
 5.250e-04  9.996e-03  5.299e+00 
 5.260e-04  9.976e-03  5.318e+00 
 5.270e-04  9.917e-03  5.338e+00 
 5.280e-04  9.819e-03  5.358e+00 
 5.290e-04  9.682e-03  5.380e+00 
 5.300e-04  9.507e-03  5.402e+00 
 5.310e-04  9.294e-03  5.426e+00 
 5.320e-04  9.045e-03  5.450e+00 
 5.330e-04  8.760e-03  5.474e+00 
 5.340e-04  8.440e-03  5.499e+00 
 5.350e-04  8.087e-03  5.524e+00 
 5.360e-04  7.702e-03  5.550e+00 
 5.370e-04  7.287e-03  5.575e+00 
 5.380e-04  6.843e-03  5.601e+00 
 5.390e-04  6.372e-03  5.627e+00 
 5.400e-04  5.875e-03  5.652e+00 
 5.410e-04  5.356e-03  5.677e+00 
 5.420e-04  4.816e-03  5.702e+00 
 5.430e-04  4.256e-03  5.727e+00 
 5.440e-04  3.680e-03  5.751e+00 
 5.450e-04  3.089e-03  5.774e+00 
 5.460e-04  2.486e-03  5.797e+00 
 5.470e-04  1.873e-03  5.819e+00 
 5.480e-04  1.253e-03  5.840e+00 
 5.490e-04  6.276e-04  5.860e+00 
 5.500e-04 -3.667e-08  5.879e+00 
 5.510e-04 -6.277e-04  5.897e+00 
 5.520e-04 -1.253e-03  5.914e+00 
 5.530e-04 -1.873e-03  5.930e+00 
 5.540e-04 -2.486e-03  5.944e+00 
 5.550e-04 -3.089e-03  5.958e+00 
 5.560e-04 -3.680e-03  5.969e+00 
 5.570e-04 -4.256e-03  5.980e+00 
 5.580e-04 -4.816e-03  5.989e+00 
 5.590e-04 -5.356e-03  5.996e+00 
 5.600e-04 -5.876e-03  6.002e+00 
 5.610e-04 -6.372e-03  6.007e+00 
 5.620e-04 -6.843e-03  6.010e+00 
 5.630e-04 -7.287e-03  6.011e+00 
 5.640e-04 -7.702e-03  6.011e+00 
 5.650e-04 -8.087e-03  6.010e+00 
 5.660e-04 -8.440e-03  6.006e+00 
 5.670e-04 -8.760e-03  6.002e+00 
 5.680e-04 -9.045e-03  5.995e+00 
 5.690e-04 -9.294e-03  5.987e+00 
 5.700e-04 -9.507e-03  5.978e+00 
 5.710e-04 -9.682e-03  5.967e+00 
 5.720e-04 -9.819e-03  5.955e+00 
 5.730e-04 -9.917e-03  5.942e+00 
 5.740e-04 -9.976e-03  5.927e+00 
 5.750e-04 -9.996e-03  5.911e+00 
 5.760e-04 -9.976e-03  5.893e+00 
 5.770e-04 -9.917e-03  5.875e+00 
 5.780e-04 -9.819e-03  5.855e+00 
 5.790e-04 -9.682e-03  5.834e+00 
 5.800e-04 -9.507e-03  5.812e+00 
 5.810e-04 -9.294e-03  5.790e+00 
 5.820e-04 -9.045e-03  5.766e+00 
 5.830e-04 -8.760e-03  5.742e+00 
 5.840e-04 -8.440e-03  5.718e+00 
 5.850e-04 -8.087e-03  5.693e+00 
 5.860e-04 -7.702e-03  5.667e+00 
