 time       v(/signal_in) v(/rect_out)
 0.000e+00  0.000e+00 -2.691e-26 
 1.000e-06 -9.425e-03 -6.922e-14 
 2.000e-06 -1.885e-02 -2.572e-13 
 3.000e-06 -2.827e-02 -5.513e-13 
 4.000e-06 -3.769e-02 -9.522e-13 
 5.000e-06 -4.712e-02 -1.456e-12 
 6.000e-06 -5.654e-02 -2.060e-12 
 7.000e-06 -6.595e-02 -2.763e-12 
 8.000e-06 -7.537e-02 -3.562e-12 
 9.000e-06 -8.478e-02 -4.458e-12 
 1.000e-05 -9.419e-02 -5.449e-12 
 1.100e-05 -1.036e-01 -6.535e-12 
 1.200e-05 -1.130e-01 -7.715e-12 
 1.300e-05 -1.224e-01 -8.990e-12 
 1.400e-05 -1.318e-01 -1.036e-11 
 1.500e-05 -1.412e-01 -1.182e-11 
 1.600e-05 -1.505e-01 -1.338e-11 
 1.700e-05 -1.599e-01 -1.503e-11 
 1.800e-05 -1.693e-01 -1.677e-11 
 1.900e-05 -1.786e-01 -1.861e-11 
 2.000e-05 -1.880e-01 -2.054e-11 
 2.100e-05 -1.973e-01 -2.256e-11 
 2.200e-05 -2.067e-01 -2.468e-11 
 2.300e-05 -2.160e-01 -2.689e-11 
 2.400e-05 -2.253e-01 -2.920e-11 
 2.500e-05 -2.347e-01 -3.159e-11 
 2.600e-05 -2.440e-01 -3.408e-11 
 2.700e-05 -2.532e-01 -3.666e-11 
 2.800e-05 -2.625e-01 -3.934e-11 
 2.900e-05 -2.718e-01 -4.211e-11 
 3.000e-05 -2.811e-01 -4.497e-11 
 3.100e-05 -2.903e-01 -4.792e-11 
 3.200e-05 -2.996e-01 -5.096e-11 
 3.300e-05 -3.088e-01 -5.410e-11 
 3.400e-05 -3.180e-01 -5.733e-11 
 3.500e-05 -3.272e-01 -6.065e-11 
 3.600e-05 -3.364e-01 -6.406e-11 
 3.700e-05 -3.456e-01 -6.756e-11 
 3.800e-05 -3.547e-01 -7.116e-11 
 3.900e-05 -3.639e-01 -7.484e-11 
 4.000e-05 -3.730e-01 -7.862e-11 
 4.100e-05 -3.822e-01 -8.249e-11 
 4.200e-05 -3.913e-01 -8.645e-11 
 4.300e-05 -4.004e-01 -9.050e-11 
 4.400e-05 -4.094e-01 -9.464e-11 
 4.500e-05 -4.185e-01 -9.887e-11 
 4.600e-05 -4.275e-01 -1.032e-10 
 4.700e-05 -4.366e-01 -1.076e-10 
 4.800e-05 -4.456e-01 -1.121e-10 
 4.900e-05 -4.546e-01 -1.167e-10 
 5.000e-05 -4.635e-01 -1.214e-10 
 5.100e-05 -4.725e-01 -1.261e-10 
 5.200e-05 -4.814e-01 -1.310e-10 
 5.300e-05 -4.903e-01 -1.359e-10 
 5.400e-05 -4.992e-01 -1.410e-10 
 5.500e-05 -5.081e-01 -1.461e-10 
 5.600e-05 -5.170e-01 -1.513e-10 
 5.700e-05 -5.258e-01 -1.566e-10 
 5.800e-05 -5.346e-01 -1.620e-10 
 5.900e-05 -5.434e-01 -1.675e-10 
 6.000e-05 -5.522e-01 -1.730e-10 
 6.100e-05 -5.609e-01 -1.787e-10 
 6.200e-05 -5.697e-01 -1.844e-10 
 6.300e-05 -5.784e-01 -1.902e-10 
 6.400e-05 -5.871e-01 -1.961e-10 
 6.500e-05 -5.957e-01 -2.021e-10 
 6.600e-05 -6.044e-01 -2.082e-10 
 6.700e-05 -6.130e-01 -2.144e-10 
 6.800e-05 -6.216e-01 -2.206e-10 
 6.900e-05 -6.301e-01 -2.270e-10 
 7.000e-05 -6.387e-01 -2.334e-10 
 7.100e-05 -6.472e-01 -2.399e-10 
 7.200e-05 -6.557e-01 -2.465e-10 
 7.300e-05 -6.641e-01 -2.531e-10 
 7.400e-05 -6.726e-01 -2.599e-10 
 7.500e-05 -6.810e-01 -2.667e-10 
 7.600e-05 -6.894e-01 -2.737e-10 
 7.700e-05 -6.977e-01 -2.807e-10 
 7.800e-05 -7.061e-01 -2.878e-10 
 7.900e-05 -7.144e-01 -2.949e-10 
 8.000e-05 -7.226e-01 -3.022e-10 
 8.100e-05 -7.309e-01 -3.095e-10 
 8.200e-05 -7.391e-01 -3.170e-10 
 8.300e-05 -7.473e-01 -3.245e-10 
 8.400e-05 -7.554e-01 -3.320e-10 
 8.500e-05 -7.636e-01 -3.397e-10 
 8.600e-05 -7.717e-01 -3.474e-10 
 8.700e-05 -7.797e-01 -3.553e-10 
 8.800e-05 -7.878e-01 -3.632e-10 
 8.900e-05 -7.958e-01 -3.711e-10 
 9.000e-05 -8.037e-01 -3.792e-10 
 9.100e-05 -8.117e-01 -3.873e-10 
 9.200e-05 -8.196e-01 -3.956e-10 
 9.300e-05 -8.275e-01 -4.039e-10 
 9.400e-05 -8.353e-01 -4.122e-10 
 9.500e-05 -8.431e-01 -4.207e-10 
 9.600e-05 -8.509e-01 -4.292e-10 
 9.700e-05 -8.586e-01 -4.378e-10 
 9.800e-05 -8.664e-01 -4.465e-10 
 9.900e-05 -8.740e-01 -4.552e-10 
 1.000e-04 -8.817e-01 -4.641e-10 
 1.010e-04 -8.893e-01 -4.730e-10 
 1.020e-04 -8.969e-01 -4.820e-10 
 1.030e-04 -9.044e-01 -4.910e-10 
 1.040e-04 -9.119e-01 -5.002e-10 
 1.050e-04 -9.194e-01 -5.094e-10 
 1.060e-04 -9.268e-01 -5.186e-10 
 1.070e-04 -9.342e-01 -5.280e-10 
 1.080e-04 -9.415e-01 -5.374e-10 
 1.090e-04 -9.489e-01 -5.469e-10 
 1.100e-04 -9.561e-01 -5.565e-10 
 1.110e-04 -9.634e-01 -5.661e-10 
 1.120e-04 -9.706e-01 -5.758e-10 
 1.130e-04 -9.777e-01 -5.856e-10 
 1.140e-04 -9.849e-01 -5.955e-10 
 1.150e-04 -9.920e-01 -6.054e-10 
 1.160e-04 -9.990e-01 -6.154e-10 
 1.170e-04 -1.006e+00 -6.255e-10 
 1.180e-04 -1.013e+00 -6.356e-10 
 1.190e-04 -1.020e+00 -6.458e-10 
 1.200e-04 -1.027e+00 -6.561e-10 
 1.210e-04 -1.034e+00 -6.664e-10 
 1.220e-04 -1.040e+00 -6.768e-10 
 1.230e-04 -1.047e+00 -6.873e-10 
 1.240e-04 -1.054e+00 -6.978e-10 
 1.250e-04 -1.061e+00 -7.084e-10 
 1.260e-04 -1.067e+00 -7.191e-10 
 1.270e-04 -1.074e+00 -7.298e-10 
 1.280e-04 -1.080e+00 -7.406e-10 
 1.290e-04 -1.087e+00 -7.515e-10 
 1.300e-04 -1.093e+00 -7.624e-10 
 1.310e-04 -1.100e+00 -7.734e-10 
 1.320e-04 -1.106e+00 -7.844e-10 
 1.330e-04 -1.113e+00 -7.956e-10 
 1.340e-04 -1.119e+00 -8.067e-10 
 1.350e-04 -1.125e+00 -8.180e-10 
 1.360e-04 -1.131e+00 -8.293e-10 
 1.370e-04 -1.138e+00 -8.406e-10 
 1.380e-04 -1.144e+00 -8.521e-10 
 1.390e-04 -1.150e+00 -8.635e-10 
 1.400e-04 -1.156e+00 -8.751e-10 
 1.410e-04 -1.162e+00 -8.867e-10 
 1.420e-04 -1.168e+00 -8.983e-10 
 1.430e-04 -1.174e+00 -9.101e-10 
 1.440e-04 -1.179e+00 -9.218e-10 
 1.450e-04 -1.185e+00 -9.337e-10 
 1.460e-04 -1.191e+00 -9.455e-10 
 1.470e-04 -1.197e+00 -9.575e-10 
 1.480e-04 -1.202e+00 -9.695e-10 
 1.490e-04 -1.208e+00 -9.815e-10 
 1.500e-04 -1.214e+00 -9.936e-10 
 1.510e-04 -1.219e+00 -1.006e-09 
 1.520e-04 -1.225e+00 -1.018e-09 
 1.530e-04 -1.230e+00 -1.030e-09 
 1.540e-04 -1.235e+00 -1.043e-09 
 1.550e-04 -1.241e+00 -1.055e-09 
 1.560e-04 -1.246e+00 -1.067e-09 
 1.570e-04 -1.251e+00 -1.080e-09 
 1.580e-04 -1.256e+00 -1.092e-09 
 1.590e-04 -1.261e+00 -1.105e-09 
 1.600e-04 -1.266e+00 -1.118e-09 
 1.610e-04 -1.272e+00 -1.130e-09 
 1.620e-04 -1.276e+00 -1.143e-09 
 1.630e-04 -1.281e+00 -1.156e-09 
 1.640e-04 -1.286e+00 -1.169e-09 
 1.650e-04 -1.291e+00 -1.182e-09 
 1.660e-04 -1.296e+00 -1.194e-09 
 1.670e-04 -1.301e+00 -1.207e-09 
 1.680e-04 -1.305e+00 -1.220e-09 
 1.690e-04 -1.310e+00 -1.233e-09 
 1.700e-04 -1.314e+00 -1.247e-09 
 1.710e-04 -1.319e+00 -1.260e-09 
 1.720e-04 -1.323e+00 -1.273e-09 
 1.730e-04 -1.328e+00 -1.286e-09 
 1.740e-04 -1.332e+00 -1.299e-09 
 1.750e-04 -1.337e+00 -1.313e-09 
 1.760e-04 -1.341e+00 -1.326e-09 
 1.770e-04 -1.345e+00 -1.339e-09 
 1.780e-04 -1.349e+00 -1.353e-09 
 1.790e-04 -1.353e+00 -1.366e-09 
 1.800e-04 -1.357e+00 -1.380e-09 
 1.810e-04 -1.361e+00 -1.393e-09 
 1.820e-04 -1.365e+00 -1.407e-09 
 1.830e-04 -1.369e+00 -1.421e-09 
 1.840e-04 -1.373e+00 -1.434e-09 
 1.850e-04 -1.377e+00 -1.448e-09 
 1.860e-04 -1.380e+00 -1.462e-09 
 1.870e-04 -1.384e+00 -1.476e-09 
 1.880e-04 -1.388e+00 -1.489e-09 
 1.890e-04 -1.391e+00 -1.503e-09 
 1.900e-04 -1.395e+00 -1.517e-09 
 1.910e-04 -1.398e+00 -1.531e-09 
 1.920e-04 -1.401e+00 -1.545e-09 
 1.930e-04 -1.405e+00 -1.559e-09 
 1.940e-04 -1.408e+00 -1.573e-09 
 1.950e-04 -1.411e+00 -1.587e-09 
 1.960e-04 -1.414e+00 -1.601e-09 
 1.970e-04 -1.418e+00 -1.615e-09 
 1.980e-04 -1.421e+00 -1.629e-09 
 1.990e-04 -1.424e+00 -1.643e-09 
 2.000e-04 -1.427e+00 -1.658e-09 
 2.010e-04 -1.429e+00 -1.672e-09 
 2.020e-04 -1.432e+00 -1.686e-09 
 2.030e-04 -1.435e+00 -1.700e-09 
 2.040e-04 -1.438e+00 -1.715e-09 
 2.050e-04 -1.440e+00 -1.729e-09 
 2.060e-04 -1.443e+00 -1.743e-09 
 2.070e-04 -1.446e+00 -1.758e-09 
 2.080e-04 -1.448e+00 -1.772e-09 
 2.090e-04 -1.450e+00 -1.786e-09 
 2.100e-04 -1.453e+00 -1.801e-09 
 2.110e-04 -1.455e+00 -1.815e-09 
 2.120e-04 -1.457e+00 -1.830e-09 
 2.130e-04 -1.460e+00 -1.844e-09 
 2.140e-04 -1.462e+00 -1.859e-09 
 2.150e-04 -1.464e+00 -1.873e-09 
 2.160e-04 -1.466e+00 -1.888e-09 
 2.170e-04 -1.468e+00 -1.903e-09 
 2.180e-04 -1.470e+00 -1.917e-09 
 2.190e-04 -1.472e+00 -1.932e-09 
 2.200e-04 -1.473e+00 -1.946e-09 
 2.210e-04 -1.475e+00 -1.961e-09 
 2.220e-04 -1.477e+00 -1.976e-09 
 2.230e-04 -1.478e+00 -1.990e-09 
 2.240e-04 -1.480e+00 -2.005e-09 
 2.250e-04 -1.482e+00 -2.020e-09 
 2.260e-04 -1.483e+00 -2.034e-09 
 2.270e-04 -1.484e+00 -2.049e-09 
 2.280e-04 -1.486e+00 -2.064e-09 
 2.290e-04 -1.487e+00 -2.079e-09 
 2.300e-04 -1.488e+00 -2.093e-09 
 2.310e-04 -1.489e+00 -2.108e-09 
 2.320e-04 -1.490e+00 -2.123e-09 
 2.330e-04 -1.491e+00 -2.138e-09 
 2.340e-04 -1.492e+00 -2.153e-09 
 2.350e-04 -1.493e+00 -2.167e-09 
 2.360e-04 -1.494e+00 -2.182e-09 
 2.370e-04 -1.495e+00 -2.197e-09 
 2.380e-04 -1.496e+00 -2.212e-09 
 2.390e-04 -1.496e+00 -2.227e-09 
 2.400e-04 -1.497e+00 -2.242e-09 
 2.410e-04 -1.498e+00 -2.256e-09 
 2.420e-04 -1.498e+00 -2.271e-09 
 2.430e-04 -1.499e+00 -2.286e-09 
 2.440e-04 -1.499e+00 -2.301e-09 
 2.450e-04 -1.499e+00 -2.316e-09 
 2.460e-04 -1.500e+00 -2.331e-09 
 2.470e-04 -1.500e+00 -2.346e-09 
 2.480e-04 -1.500e+00 -2.360e-09 
 2.490e-04 -1.500e+00 -2.375e-09 
 2.500e-04 -1.500e+00 -2.390e-09 
 2.510e-04 -1.500e+00 -2.405e-09 
 2.520e-04 -1.500e+00 -2.420e-09 
 2.530e-04 -1.500e+00 -2.435e-09 
 2.540e-04 -1.500e+00 -2.450e-09 
 2.550e-04 -1.499e+00 -2.464e-09 
 2.560e-04 -1.499e+00 -2.479e-09 
 2.570e-04 -1.499e+00 -2.494e-09 
 2.580e-04 -1.498e+00 -2.509e-09 
 2.590e-04 -1.498e+00 -2.524e-09 
 2.600e-04 -1.497e+00 -2.539e-09 
 2.610e-04 -1.496e+00 -2.553e-09 
 2.620e-04 -1.496e+00 -2.568e-09 
 2.630e-04 -1.495e+00 -2.583e-09 
 2.640e-04 -1.494e+00 -2.598e-09 
 2.650e-04 -1.493e+00 -2.613e-09 
 2.660e-04 -1.492e+00 -2.627e-09 
 2.670e-04 -1.491e+00 -2.642e-09 
 2.680e-04 -1.490e+00 -2.657e-09 
 2.690e-04 -1.489e+00 -2.672e-09 
 2.700e-04 -1.488e+00 -2.686e-09 
 2.710e-04 -1.487e+00 -2.701e-09 
 2.720e-04 -1.486e+00 -2.716e-09 
 2.730e-04 -1.484e+00 -2.730e-09 
 2.740e-04 -1.483e+00 -2.745e-09 
 2.750e-04 -1.482e+00 -2.760e-09 
 2.760e-04 -1.480e+00 -2.774e-09 
 2.770e-04 -1.478e+00 -2.789e-09 
 2.780e-04 -1.477e+00 -2.804e-09 
 2.790e-04 -1.475e+00 -2.818e-09 
 2.800e-04 -1.473e+00 -2.833e-09 
 2.810e-04 -1.472e+00 -2.847e-09 
 2.820e-04 -1.470e+00 -2.862e-09 
 2.830e-04 -1.468e+00 -2.876e-09 
 2.840e-04 -1.466e+00 -2.891e-09 
 2.850e-04 -1.464e+00 -2.905e-09 
 2.860e-04 -1.462e+00 -2.920e-09 
 2.870e-04 -1.460e+00 -2.934e-09 
 2.880e-04 -1.457e+00 -2.948e-09 
 2.890e-04 -1.455e+00 -2.963e-09 
 2.900e-04 -1.453e+00 -2.977e-09 
 2.910e-04 -1.450e+00 -2.991e-09 
 2.920e-04 -1.448e+00 -3.006e-09 
 2.930e-04 -1.446e+00 -3.020e-09 
 2.940e-04 -1.443e+00 -3.034e-09 
 2.950e-04 -1.440e+00 -3.048e-09 
 2.960e-04 -1.438e+00 -3.063e-09 
 2.970e-04 -1.435e+00 -3.077e-09 
 2.980e-04 -1.432e+00 -3.091e-09 
 2.990e-04 -1.429e+00 -3.105e-09 
 3.000e-04 -1.427e+00 -3.119e-09 
 3.010e-04 -1.424e+00 -3.133e-09 
 3.020e-04 -1.421e+00 -3.147e-09 
 3.030e-04 -1.418e+00 -3.161e-09 
 3.040e-04 -1.414e+00 -3.175e-09 
 3.050e-04 -1.411e+00 -3.189e-09 
 3.060e-04 -1.408e+00 -3.203e-09 
 3.070e-04 -1.405e+00 -3.217e-09 
 3.080e-04 -1.401e+00 -3.231e-09 
 3.090e-04 -1.398e+00 -3.244e-09 
 3.100e-04 -1.395e+00 -3.258e-09 
 3.110e-04 -1.391e+00 -3.272e-09 
 3.120e-04 -1.388e+00 -3.285e-09 
 3.130e-04 -1.384e+00 -3.299e-09 
 3.140e-04 -1.380e+00 -3.313e-09 
 3.150e-04 -1.377e+00 -3.326e-09 
 3.160e-04 -1.373e+00 -3.340e-09 
 3.170e-04 -1.369e+00 -3.353e-09 
 3.180e-04 -1.365e+00 -3.367e-09 
 3.190e-04 -1.361e+00 -3.380e-09 
 3.200e-04 -1.357e+00 -3.393e-09 
 3.210e-04 -1.353e+00 -3.407e-09 
 3.220e-04 -1.349e+00 -3.420e-09 
 3.230e-04 -1.345e+00 -3.433e-09 
 3.240e-04 -1.341e+00 -3.446e-09 
 3.250e-04 -1.337e+00 -3.459e-09 
 3.260e-04 -1.332e+00 -3.473e-09 
 3.270e-04 -1.328e+00 -3.486e-09 
 3.280e-04 -1.323e+00 -3.499e-09 
 3.290e-04 -1.319e+00 -3.512e-09 
 3.300e-04 -1.314e+00 -3.525e-09 
 3.310e-04 -1.310e+00 -3.537e-09 
 3.320e-04 -1.305e+00 -3.550e-09 
 3.330e-04 -1.301e+00 -3.563e-09 
 3.340e-04 -1.296e+00 -3.576e-09 
 3.350e-04 -1.291e+00 -3.588e-09 
 3.360e-04 -1.286e+00 -3.601e-09 
 3.370e-04 -1.281e+00 -3.614e-09 
 3.380e-04 -1.276e+00 -3.626e-09 
 3.390e-04 -1.272e+00 -3.639e-09 
 3.400e-04 -1.266e+00 -3.651e-09 
 3.410e-04 -1.261e+00 -3.663e-09 
 3.420e-04 -1.256e+00 -3.676e-09 
 3.430e-04 -1.251e+00 -3.688e-09 
 3.440e-04 -1.246e+00 -3.700e-09 
 3.450e-04 -1.241e+00 -3.712e-09 
 3.460e-04 -1.235e+00 -3.724e-09 
 3.470e-04 -1.230e+00 -3.737e-09 
 3.480e-04 -1.225e+00 -3.749e-09 
 3.490e-04 -1.219e+00 -3.760e-09 
 3.500e-04 -1.214e+00 -3.772e-09 
 3.510e-04 -1.208e+00 -3.784e-09 
 3.520e-04 -1.202e+00 -3.796e-09 
 3.530e-04 -1.197e+00 -3.808e-09 
 3.540e-04 -1.191e+00 -3.819e-09 
 3.550e-04 -1.185e+00 -3.831e-09 
 3.560e-04 -1.179e+00 -3.842e-09 
 3.570e-04 -1.174e+00 -3.854e-09 
 3.580e-04 -1.168e+00 -3.865e-09 
 3.590e-04 -1.162e+00 -3.877e-09 
 3.600e-04 -1.156e+00 -3.888e-09 
 3.610e-04 -1.150e+00 -3.899e-09 
 3.620e-04 -1.144e+00 -3.910e-09 
 3.630e-04 -1.138e+00 -3.922e-09 
 3.640e-04 -1.131e+00 -3.933e-09 
 3.650e-04 -1.125e+00 -3.944e-09 
 3.660e-04 -1.119e+00 -3.955e-09 
 3.670e-04 -1.113e+00 -3.965e-09 
 3.680e-04 -1.106e+00 -3.976e-09 
 3.690e-04 -1.100e+00 -3.987e-09 
 3.700e-04 -1.093e+00 -3.998e-09 
 3.710e-04 -1.087e+00 -4.008e-09 
 3.720e-04 -1.080e+00 -4.019e-09 
 3.730e-04 -1.074e+00 -4.029e-09 
 3.740e-04 -1.067e+00 -4.040e-09 
 3.750e-04 -1.061e+00 -4.050e-09 
 3.760e-04 -1.054e+00 -4.060e-09 
 3.770e-04 -1.047e+00 -4.070e-09 
 3.780e-04 -1.040e+00 -4.081e-09 
 3.790e-04 -1.034e+00 -4.091e-09 
 3.800e-04 -1.027e+00 -4.101e-09 
 3.810e-04 -1.020e+00 -4.110e-09 
 3.820e-04 -1.013e+00 -4.120e-09 
 3.830e-04 -1.006e+00 -4.130e-09 
 3.840e-04 -9.990e-01 -4.140e-09 
 3.850e-04 -9.920e-01 -4.149e-09 
 3.860e-04 -9.849e-01 -4.159e-09 
 3.870e-04 -9.777e-01 -4.169e-09 
 3.880e-04 -9.706e-01 -4.178e-09 
 3.890e-04 -9.634e-01 -4.187e-09 
 3.900e-04 -9.561e-01 -4.197e-09 
 3.910e-04 -9.489e-01 -4.206e-09 
 3.920e-04 -9.415e-01 -4.215e-09 
 3.930e-04 -9.342e-01 -4.224e-09 
 3.940e-04 -9.268e-01 -4.233e-09 
 3.950e-04 -9.194e-01 -4.242e-09 
 3.960e-04 -9.119e-01 -4.251e-09 
 3.970e-04 -9.044e-01 -4.259e-09 
 3.980e-04 -8.969e-01 -4.268e-09 
 3.990e-04 -8.893e-01 -4.277e-09 
 4.000e-04 -8.817e-01 -4.285e-09 
 4.010e-04 -8.740e-01 -4.294e-09 
 4.020e-04 -8.664e-01 -4.302e-09 
 4.030e-04 -8.586e-01 -4.310e-09 
 4.040e-04 -8.509e-01 -4.319e-09 
 4.050e-04 -8.431e-01 -4.327e-09 
 4.060e-04 -8.353e-01 -4.335e-09 
 4.070e-04 -8.275e-01 -4.343e-09 
 4.080e-04 -8.196e-01 -4.351e-09 
 4.090e-04 -8.117e-01 -4.359e-09 
 4.100e-04 -8.037e-01 -4.366e-09 
 4.110e-04 -7.958e-01 -4.374e-09 
 4.120e-04 -7.878e-01 -4.381e-09 
 4.130e-04 -7.797e-01 -4.389e-09 
 4.140e-04 -7.717e-01 -4.396e-09 
 4.150e-04 -7.636e-01 -4.404e-09 
 4.160e-04 -7.554e-01 -4.411e-09 
 4.170e-04 -7.473e-01 -4.418e-09 
 4.180e-04 -7.391e-01 -4.425e-09 
 4.190e-04 -7.309e-01 -4.432e-09 
 4.200e-04 -7.226e-01 -4.439e-09 
 4.210e-04 -7.144e-01 -4.446e-09 
 4.220e-04 -7.061e-01 -4.453e-09 
 4.230e-04 -6.977e-01 -4.459e-09 
 4.240e-04 -6.894e-01 -4.466e-09 
 4.250e-04 -6.810e-01 -4.473e-09 
 4.260e-04 -6.726e-01 -4.479e-09 
 4.270e-04 -6.641e-01 -4.485e-09 
 4.280e-04 -6.557e-01 -4.492e-09 
 4.290e-04 -6.472e-01 -4.498e-09 
 4.300e-04 -6.387e-01 -4.504e-09 
 4.310e-04 -6.301e-01 -4.510e-09 
 4.320e-04 -6.216e-01 -4.516e-09 
 4.330e-04 -6.130e-01 -4.522e-09 
 4.340e-04 -6.044e-01 -4.527e-09 
 4.350e-04 -5.957e-01 -4.533e-09 
 4.360e-04 -5.871e-01 -4.538e-09 
 4.370e-04 -5.784e-01 -4.544e-09 
 4.380e-04 -5.697e-01 -4.549e-09 
 4.390e-04 -5.609e-01 -4.555e-09 
 4.400e-04 -5.522e-01 -4.560e-09 
 4.410e-04 -5.434e-01 -4.565e-09 
 4.420e-04 -5.346e-01 -4.570e-09 
 4.430e-04 -5.258e-01 -4.575e-09 
 4.440e-04 -5.170e-01 -4.580e-09 
 4.450e-04 -5.081e-01 -4.585e-09 
 4.460e-04 -4.992e-01 -4.589e-09 
 4.470e-04 -4.903e-01 -4.594e-09 
 4.480e-04 -4.814e-01 -4.598e-09 
 4.490e-04 -4.725e-01 -4.603e-09 
 4.500e-04 -4.635e-01 -4.607e-09 
 4.510e-04 -4.546e-01 -4.611e-09 
 4.520e-04 -4.456e-01 -4.615e-09 
 4.530e-04 -4.366e-01 -4.619e-09 
 4.540e-04 -4.275e-01 -4.623e-09 
 4.550e-04 -4.185e-01 -4.627e-09 
 4.560e-04 -4.094e-01 -4.631e-09 
 4.570e-04 -4.004e-01 -4.635e-09 
 4.580e-04 -3.913e-01 -4.638e-09 
 4.590e-04 -3.822e-01 -4.642e-09 
 4.600e-04 -3.730e-01 -4.645e-09 
 4.610e-04 -3.639e-01 -4.649e-09 
 4.620e-04 -3.547e-01 -4.652e-09 
 4.630e-04 -3.456e-01 -4.655e-09 
 4.640e-04 -3.364e-01 -4.658e-09 
 4.650e-04 -3.272e-01 -4.661e-09 
 4.660e-04 -3.180e-01 -4.664e-09 
 4.670e-04 -3.088e-01 -4.667e-09 
 4.680e-04 -2.996e-01 -4.669e-09 
 4.690e-04 -2.903e-01 -4.672e-09 
 4.700e-04 -2.811e-01 -4.674e-09 
 4.710e-04 -2.718e-01 -4.677e-09 
 4.720e-04 -2.625e-01 -4.679e-09 
 4.730e-04 -2.532e-01 -4.681e-09 
 4.740e-04 -2.440e-01 -4.683e-09 
 4.750e-04 -2.347e-01 -4.685e-09 
 4.760e-04 -2.253e-01 -4.687e-09 
 4.770e-04 -2.160e-01 -4.689e-09 
 4.780e-04 -2.067e-01 -4.691e-09 
 4.790e-04 -1.973e-01 -4.693e-09 
 4.800e-04 -1.880e-01 -4.694e-09 
 4.810e-04 -1.786e-01 -4.696e-09 
 4.820e-04 -1.693e-01 -4.697e-09 
 4.830e-04 -1.599e-01 -4.698e-09 
 4.840e-04 -1.505e-01 -4.699e-09 
 4.850e-04 -1.412e-01 -4.700e-09 
 4.860e-04 -1.318e-01 -4.701e-09 
 4.870e-04 -1.224e-01 -4.702e-09 
 4.880e-04 -1.130e-01 -4.703e-09 
 4.890e-04 -1.036e-01 -4.704e-09 
 4.900e-04 -9.419e-02 -4.704e-09 
 4.910e-04 -8.478e-02 -4.705e-09 
 4.920e-04 -7.537e-02 -4.705e-09 
 4.930e-04 -6.595e-02 -4.706e-09 
 4.940e-04 -5.654e-02 -4.706e-09 
 4.950e-04 -4.712e-02 -4.706e-09 
 4.960e-04 -3.769e-02 -4.706e-09 
 4.970e-04 -2.827e-02 -4.706e-09 
 4.980e-04 -1.885e-02 -4.706e-09 
 4.990e-04 -9.425e-03 -4.706e-09 
 5.000e-04  5.501e-09 -4.705e-09 
 5.010e-04  9.425e-03 -4.705e-09 
 5.020e-04  1.885e-02 -4.704e-09 
 5.030e-04  2.827e-02 -4.703e-09 
 5.040e-04  3.769e-02 -4.702e-09 
 5.050e-04  4.712e-02 -4.701e-09 
 5.060e-04  5.654e-02 -4.699e-09 
 5.070e-04  6.595e-02 -4.697e-09 
 5.080e-04  7.537e-02 -4.694e-09 
 5.090e-04  8.478e-02 -4.691e-09 
 5.100e-04  9.419e-02 -4.686e-09 
 5.110e-04  1.036e-01 -4.680e-09 
 5.120e-04  1.130e-01 -4.672e-09 
 5.130e-04  1.224e-01 -4.661e-09 
 5.140e-04  1.318e-01 -4.645e-09 
 5.150e-04  1.412e-01 -4.623e-09 
 5.160e-04  1.505e-01 -4.593e-09 
 5.170e-04  1.599e-01 -4.549e-09 
 5.180e-04  1.693e-01 -4.487e-09 
 5.190e-04  1.786e-01 -4.399e-09 
 5.200e-04  1.880e-01 -4.274e-09 
 5.210e-04  1.973e-01 -4.095e-09 
 5.220e-04  2.067e-01 -3.839e-09 
 5.230e-04  2.160e-01 -3.472e-09 
 5.240e-04  2.253e-01 -2.948e-09 
 5.250e-04  2.347e-01 -2.197e-09 
 5.260e-04  2.440e-01 -1.122e-09 
 5.270e-04  2.532e-01  4.171e-10 
 5.280e-04  2.625e-01  2.620e-09 
 5.290e-04  2.718e-01  5.772e-09 
 5.300e-04  2.811e-01  1.028e-08 
 5.310e-04  2.903e-01  1.673e-08 
 5.320e-04  2.996e-01  2.594e-08 
 5.330e-04  3.088e-01  3.911e-08 
 5.340e-04  3.180e-01  5.792e-08 
 5.350e-04  3.272e-01  8.477e-08 
 5.360e-04  3.364e-01  1.231e-07 
 5.370e-04  3.456e-01  1.777e-07 
 5.380e-04  3.547e-01  2.556e-07 
 5.390e-04  3.639e-01  3.665e-07 
 5.400e-04  3.730e-01  5.244e-07 
 5.410e-04  3.822e-01  7.490e-07 
 5.420e-04  3.913e-01  1.068e-06 
 5.430e-04  4.004e-01  1.522e-06 
 5.440e-04  4.094e-01  2.166e-06 
 5.450e-04  4.185e-01  3.079e-06 
 5.460e-04  4.275e-01  4.373e-06 
 5.470e-04  4.366e-01  6.203e-06 
 5.480e-04  4.456e-01  8.788e-06 
 5.490e-04  4.546e-01  1.243e-05 
 5.500e-04  4.635e-01  1.756e-05 
 5.510e-04  4.725e-01  2.474e-05 
 5.520e-04  4.814e-01  3.478e-05 
 5.530e-04  4.903e-01  4.871e-05 
 5.540e-04  4.992e-01  6.795e-05 
 5.550e-04  5.081e-01  9.429e-05 
 5.560e-04  5.170e-01  1.300e-04 
 5.570e-04  5.258e-01  1.778e-04 
 5.580e-04  5.346e-01  2.409e-04 
 5.590e-04  5.434e-01  3.229e-04 
 5.600e-04  5.522e-01  4.279e-04 
 5.610e-04  5.609e-01  5.597e-04 
 5.620e-04  5.697e-01  7.224e-04 
 5.630e-04  5.784e-01  9.200e-04 
 5.640e-04  5.871e-01  1.156e-03 
 5.650e-04  5.957e-01  1.434e-03 
 5.660e-04  6.044e-01  1.756e-03 
 5.670e-04  6.130e-01  2.126e-03 
 5.680e-04  6.216e-01  2.545e-03 
 5.690e-04  6.301e-01  3.015e-03 
 5.700e-04  6.387e-01  3.539e-03 
 5.710e-04  6.472e-01  4.116e-03 
 5.720e-04  6.557e-01  4.749e-03 
 5.730e-04  6.641e-01  5.437e-03 
 5.740e-04  6.726e-01  6.183e-03 
 5.750e-04  6.810e-01  6.985e-03 
 5.760e-04  6.894e-01  7.846e-03 
 5.770e-04  6.977e-01  8.764e-03 
 5.780e-04  7.061e-01  9.740e-03 
 5.790e-04  7.144e-01  1.077e-02 
 5.800e-04  7.226e-01  1.187e-02 
 5.810e-04  7.309e-01  1.302e-02 
 5.820e-04  7.391e-01  1.422e-02 
 5.830e-04  7.473e-01  1.549e-02 
 5.840e-04  7.554e-01  1.681e-02 
 5.850e-04  7.636e-01  1.819e-02 
 5.860e-04  7.717e-01  1.963e-02 
