 time       v(/in)     v(/out)    i(XU1:+IN) i(XU1:-IN) i(XU1:OUT)
 0.000e+00  0.000e+00  0.000e+00  0.000e+00  0.000e+00  0.000e+00 
 1.000e-05  6.278e-03  1.255e-02  1.996e-17 -1.996e-17 -6.276e-07 
 2.000e-05  1.253e-02  2.505e-02  1.985e-17 -1.985e-17 -1.253e-06 
 3.000e-05  1.873e-02  3.746e-02  1.964e-17 -1.964e-17 -1.873e-06 
 4.000e-05  2.486e-02  4.972e-02  1.938e-17 -1.938e-17 -2.486e-06 
 5.000e-05  3.089e-02  6.178e-02  1.901e-17 -1.901e-17 -3.089e-06 
 6.000e-05  3.680e-02  7.359e-02  1.860e-17 -1.860e-17 -3.680e-06 
 7.000e-05  4.256e-02  8.512e-02  1.809e-17 -1.809e-17 -4.256e-06 
 8.000e-05  4.816e-02  9.631e-02  1.753e-17 -1.753e-17 -4.815e-06 
 9.000e-05  5.356e-02  1.071e-01  1.688e-17 -1.688e-17 -5.356e-06 
 1.000e-04  5.876e-02  1.175e-01  1.619e-17 -1.619e-17 -5.875e-06 
 1.100e-04  6.372e-02  1.274e-01  1.540e-17 -1.540e-17 -6.372e-06 
 1.200e-04  6.843e-02  1.369e-01  1.459e-17 -1.459e-17 -6.843e-06 
 1.300e-04  7.287e-02  1.457e-01  1.368e-17 -1.368e-17 -7.287e-06 
 1.400e-04  7.702e-02  1.540e-01  1.276e-17 -1.276e-17 -7.702e-06 
 1.500e-04  8.087e-02  1.617e-01  1.175e-17 -1.175e-17 -8.087e-06 
 1.600e-04  8.440e-02  1.688e-01  1.073e-17 -1.073e-17 -8.440e-06 
 1.700e-04  8.760e-02  1.752e-01  9.627e-18 -9.627e-18 -8.760e-06 
 1.800e-04  9.045e-02  1.809e-01  8.524e-18 -8.524e-18 -9.045e-06 
 1.900e-04  9.294e-02  1.859e-01  7.355e-18 -7.355e-18 -9.294e-06 
 2.000e-04  9.507e-02  1.901e-01  6.189e-18 -6.189e-18 -9.507e-06 
 2.100e-04  9.682e-02  1.936e-01  4.967e-18 -4.967e-18 -9.682e-06 
 2.200e-04  9.819e-02  1.964e-01  3.757e-18 -3.757e-18 -9.819e-06 
 2.300e-04  9.917e-02  1.983e-01  2.500e-18 -2.500e-18 -9.917e-06 
 2.400e-04  9.976e-02  1.995e-01  1.265e-18 -1.265e-18 -9.976e-06 
 2.500e-04  9.996e-02  1.999e-01 -6.795e-21  6.795e-21 -9.996e-06 
 2.600e-04  9.976e-02  1.995e-01 -1.246e-18  1.246e-18 -9.976e-06 
 2.700e-04  9.917e-02  1.983e-01 -2.513e-18  2.513e-18 -9.917e-06 
 2.800e-04  9.819e-02  1.964e-01 -3.738e-18  3.738e-18 -9.819e-06 
 2.900e-04  9.682e-02  1.936e-01 -4.980e-18  4.980e-18 -9.682e-06 
 3.000e-04  9.507e-02  1.901e-01 -6.171e-18  6.171e-18 -9.507e-06 
 3.100e-04  9.294e-02  1.859e-01 -7.369e-18  7.369e-18 -9.294e-06 
 3.200e-04  9.045e-02  1.809e-01 -8.506e-18  8.506e-18 -9.045e-06 
 3.300e-04  8.760e-02  1.752e-01 -9.641e-18  9.641e-18 -8.760e-06 
 3.400e-04  8.440e-02  1.688e-01 -1.071e-17  1.071e-17 -8.440e-06 
 3.500e-04  8.087e-02  1.617e-01 -1.176e-17  1.176e-17 -8.087e-06 
 3.600e-04  7.702e-02  1.540e-01 -1.274e-17  1.274e-17 -7.702e-06 
 3.700e-04  7.287e-02  1.457e-01 -1.370e-17  1.370e-17 -7.287e-06 
 3.800e-04  6.843e-02  1.369e-01 -1.457e-17  1.457e-17 -6.843e-06 
 3.900e-04  6.372e-02  1.274e-01 -1.542e-17  1.542e-17 -6.372e-06 
 4.000e-04  5.875e-02  1.175e-01 -1.617e-17  1.617e-17 -5.876e-06 
 4.100e-04  5.356e-02  1.071e-01 -1.689e-17  1.689e-17 -5.356e-06 
 4.200e-04  4.816e-02  9.632e-02 -1.752e-17  1.752e-17 -4.816e-06 
 4.300e-04  4.256e-02  8.512e-02 -1.810e-17  1.810e-17 -4.256e-06 
 4.400e-04  3.680e-02  7.360e-02 -1.859e-17  1.859e-17 -3.680e-06 
 4.500e-04  3.089e-02  6.178e-02 -1.903e-17  1.903e-17 -3.089e-06 
 4.600e-04  2.486e-02  4.972e-02 -1.936e-17  1.936e-17 -2.486e-06 
 4.700e-04  1.873e-02  3.746e-02 -1.965e-17  1.965e-17 -1.873e-06 
 4.800e-04  1.253e-02  2.506e-02 -1.983e-17  1.983e-17 -1.253e-06 
 4.900e-04  6.276e-03  1.256e-02 -1.997e-17  1.997e-17 -6.278e-07 
 5.000e-04 -3.667e-07  3.265e-06 -1.999e-17  1.999e-17 -1.632e-10 
 5.100e-04 -6.277e-03 -1.255e-02 -1.997e-17  1.997e-17  6.275e-07 
 5.200e-04 -1.253e-02 -2.505e-02 -1.983e-17  1.983e-17  1.253e-06 
 5.300e-04 -1.873e-02 -3.746e-02 -1.965e-17  1.965e-17  1.873e-06 
 5.400e-04 -2.486e-02 -4.972e-02 -1.936e-17  1.936e-17  2.486e-06 
 5.500e-04 -3.089e-02 -6.178e-02 -1.903e-17  1.903e-17  3.089e-06 
 5.600e-04 -3.680e-02 -7.359e-02 -1.859e-17  1.859e-17  3.680e-06 
 5.700e-04 -4.256e-02 -8.512e-02 -1.810e-17  1.810e-17  4.256e-06 
 5.800e-04 -4.816e-02 -9.631e-02 -1.752e-17  1.752e-17  4.815e-06 
 5.900e-04 -5.356e-02 -1.071e-01 -1.689e-17  1.689e-17  5.356e-06 
 6.000e-04 -5.876e-02 -1.175e-01 -1.617e-17  1.617e-17  5.875e-06 
 6.100e-04 -6.372e-02 -1.274e-01 -1.542e-17  1.542e-17  6.372e-06 
 6.200e-04 -6.843e-02 -1.369e-01 -1.457e-17  1.457e-17  6.843e-06 
 6.300e-04 -7.287e-02 -1.457e-01 -1.370e-17  1.370e-17  7.287e-06 
 6.400e-04 -7.702e-02 -1.540e-01 -1.274e-17  1.274e-17  7.702e-06 
 6.500e-04 -8.087e-02 -1.617e-01 -1.176e-17  1.176e-17  8.087e-06 
 6.600e-04 -8.440e-02 -1.688e-01 -1.071e-17  1.071e-17  8.440e-06 
 6.700e-04 -8.760e-02 -1.752e-01 -9.643e-18  9.643e-18  8.760e-06 
 6.800e-04 -9.045e-02 -1.809e-01 -8.509e-18  8.509e-18  9.045e-06 
 6.900e-04 -9.294e-02 -1.859e-01 -7.371e-18  7.371e-18  9.294e-06 
 7.000e-04 -9.507e-02 -1.901e-01 -6.174e-18  6.174e-18  9.507e-06 
 7.100e-04 -9.682e-02 -1.936e-01 -4.982e-18  4.982e-18  9.682e-06 
 7.200e-04 -9.819e-02 -1.964e-01 -3.741e-18  3.741e-18  9.819e-06 
 7.300e-04 -9.917e-02 -1.983e-01 -2.515e-18  2.515e-18  9.917e-06 
 7.400e-04 -9.976e-02 -1.995e-01 -1.249e-18  1.249e-18  9.976e-06 
 7.500e-04 -9.996e-02 -1.999e-01 -8.947e-21  8.947e-21  9.996e-06 
 7.600e-04 -9.976e-02 -1.995e-01  1.262e-18 -1.262e-18  9.976e-06 
 7.700e-04 -9.917e-02 -1.983e-01  2.498e-18 -2.498e-18  9.917e-06 
 7.800e-04 -9.819e-02 -1.964e-01  3.754e-18 -3.754e-18  9.819e-06 
 7.900e-04 -9.682e-02 -1.936e-01  4.965e-18 -4.965e-18  9.682e-06 
 8.000e-04 -9.507e-02 -1.901e-01  6.186e-18 -6.186e-18  9.507e-06 
 8.100e-04 -9.294e-02 -1.859e-01  7.353e-18 -7.353e-18  9.294e-06 
 8.200e-04 -9.045e-02 -1.809e-01  8.521e-18 -8.521e-18  9.045e-06 
 8.300e-04 -8.760e-02 -1.752e-01  9.626e-18 -9.626e-18  8.760e-06 
 8.400e-04 -8.440e-02 -1.688e-01  1.072e-17 -1.072e-17  8.440e-06 
 8.500e-04 -8.087e-02 -1.617e-01  1.175e-17 -1.175e-17  8.087e-06 
 8.600e-04 -7.702e-02 -1.540e-01  1.275e-17 -1.275e-17  7.702e-06 
 8.700e-04 -7.287e-02 -1.457e-01  1.368e-17 -1.368e-17  7.287e-06 
 8.800e-04 -6.843e-02 -1.369e-01  1.458e-17 -1.458e-17  6.843e-06 
 8.900e-04 -6.372e-02 -1.274e-01  1.540e-17 -1.540e-17  6.372e-06 
 9.000e-04 -5.875e-02 -1.175e-01  1.619e-17 -1.619e-17  5.876e-06 
 9.100e-04 -5.356e-02 -1.071e-01  1.688e-17 -1.688e-17  5.356e-06 
 9.200e-04 -4.816e-02 -9.632e-02  1.753e-17 -1.753e-17  4.816e-06 
 9.300e-04 -4.256e-02 -8.512e-02  1.809e-17 -1.809e-17  4.256e-06 
 9.400e-04 -3.680e-02 -7.360e-02  1.860e-17 -1.860e-17  3.680e-06 
 9.500e-04 -3.089e-02 -6.178e-02  1.901e-17 -1.901e-17  3.089e-06 
 9.600e-04 -2.486e-02 -4.972e-02  1.938e-17 -1.938e-17  2.486e-06 
 9.700e-04 -1.873e-02 -3.746e-02  1.964e-17 -1.964e-17  1.873e-06 
 9.800e-04 -1.253e-02 -2.506e-02  1.985e-17 -1.985e-17  1.253e-06 
 9.900e-04 -6.276e-03 -1.256e-02  1.995e-17 -1.995e-17  6.278e-07 
 1.000e-03  3.667e-07 -3.268e-06  2.001e-17 -2.001e-17  1.634e-10 
 1.010e-03  6.277e-03  1.255e-02  1.995e-17 -1.995e-17 -6.275e-07 
 1.020e-03  1.253e-02  2.505e-02  1.985e-17 -1.985e-17 -1.253e-06 
 1.030e-03  1.873e-02  3.746e-02  1.964e-17 -1.964e-17 -1.873e-06 
 1.040e-03  2.486e-02  4.972e-02  1.938e-17 -1.938e-17 -2.486e-06 
 1.050e-03  3.089e-02  6.178e-02  1.901e-17 -1.901e-17 -3.089e-06 
 1.060e-03  3.680e-02  7.359e-02  1.860e-17 -1.860e-17 -3.680e-06 
 1.070e-03  4.256e-02  8.512e-02  1.809e-17 -1.809e-17 -4.256e-06 
 1.080e-03  4.816e-02  9.631e-02  1.753e-17 -1.753e-17 -4.815e-06 
 1.090e-03  5.356e-02  1.071e-01  1.688e-17 -1.688e-17 -5.356e-06 
 1.100e-03  5.876e-02  1.175e-01  1.619e-17 -1.619e-17 -5.875e-06 
 1.110e-03  6.372e-02  1.274e-01  1.540e-17 -1.540e-17 -6.372e-06 
 1.120e-03  6.843e-02  1.369e-01  1.459e-17 -1.459e-17 -6.843e-06 
 1.130e-03  7.287e-02  1.457e-01  1.368e-17 -1.368e-17 -7.287e-06 
 1.140e-03  7.702e-02  1.540e-01  1.276e-17 -1.276e-17 -7.702e-06 
 1.150e-03  8.087e-02  1.617e-01  1.175e-17 -1.175e-17 -8.087e-06 
 1.160e-03  8.440e-02  1.688e-01  1.072e-17 -1.072e-17 -8.440e-06 
 1.170e-03  8.760e-02  1.752e-01  9.628e-18 -9.628e-18 -8.760e-06 
 1.180e-03  9.045e-02  1.809e-01  8.523e-18 -8.523e-18 -9.045e-06 
 1.190e-03  9.294e-02  1.859e-01  7.356e-18 -7.356e-18 -9.294e-06 
 1.200e-03  9.507e-02  1.901e-01  6.188e-18 -6.188e-18 -9.507e-06 
 1.210e-03  9.682e-02  1.936e-01  4.968e-18 -4.968e-18 -9.682e-06 
 1.220e-03  9.819e-02  1.964e-01  3.756e-18 -3.756e-18 -9.819e-06 
 1.230e-03  9.917e-02  1.983e-01  2.501e-18 -2.501e-18 -9.917e-06 
 1.240e-03  9.976e-02  1.995e-01  1.264e-18 -1.264e-18 -9.976e-06 
 1.250e-03  9.996e-02  1.999e-01 -5.824e-21  5.824e-21 -9.996e-06 
 1.260e-03  9.976e-02  1.995e-01 -1.247e-18  1.247e-18 -9.976e-06 
 1.270e-03  9.917e-02  1.983e-01 -2.512e-18  2.512e-18 -9.917e-06 
 1.280e-03  9.819e-02  1.964e-01 -3.739e-18  3.739e-18 -9.819e-06 
 1.290e-03  9.682e-02  1.936e-01 -4.979e-18  4.979e-18 -9.682e-06 
 1.300e-03  9.507e-02  1.901e-01 -6.172e-18  6.172e-18 -9.507e-06 
 1.310e-03  9.294e-02  1.859e-01 -7.368e-18  7.368e-18 -9.294e-06 
 1.320e-03  9.045e-02  1.809e-01 -8.507e-18  8.507e-18 -9.045e-06 
 1.330e-03  8.760e-02  1.752e-01 -9.640e-18  9.640e-18 -8.760e-06 
 1.340e-03  8.440e-02  1.688e-01 -1.071e-17  1.071e-17 -8.440e-06 
 1.350e-03  8.087e-02  1.617e-01 -1.176e-17  1.176e-17 -8.087e-06 
 1.360e-03  7.702e-02  1.540e-01 -1.274e-17  1.274e-17 -7.702e-06 
 1.370e-03  7.287e-02  1.457e-01 -1.370e-17  1.370e-17 -7.287e-06 
 1.380e-03  6.843e-02  1.369e-01 -1.457e-17  1.457e-17 -6.843e-06 
 1.390e-03  6.372e-02  1.274e-01 -1.542e-17  1.542e-17 -6.372e-06 
 1.400e-03  5.875e-02  1.175e-01 -1.617e-17  1.617e-17 -5.876e-06 
 1.410e-03  5.356e-02  1.071e-01 -1.689e-17  1.689e-17 -5.356e-06 
 1.420e-03  4.816e-02  9.632e-02 -1.752e-17  1.752e-17 -4.816e-06 
 1.430e-03  4.256e-02  8.512e-02 -1.810e-17  1.810e-17 -4.256e-06 
 1.440e-03  3.680e-02  7.360e-02 -1.859e-17  1.859e-17 -3.680e-06 
 1.450e-03  3.089e-02  6.178e-02 -1.903e-17  1.903e-17 -3.089e-06 
 1.460e-03  2.486e-02  4.972e-02 -1.936e-17  1.936e-17 -2.486e-06 
 1.470e-03  1.873e-02  3.746e-02 -1.965e-17  1.965e-17 -1.873e-06 
 1.480e-03  1.253e-02  2.506e-02 -1.983e-17  1.983e-17 -1.253e-06 
 1.490e-03  6.276e-03  1.256e-02 -1.997e-17  1.997e-17 -6.278e-07 
 1.500e-03 -3.667e-07  3.265e-06 -1.999e-17  1.999e-17 -1.632e-10 
 1.510e-03 -6.277e-03 -1.255e-02 -1.997e-17  1.997e-17  6.275e-07 
 1.520e-03 -1.253e-02 -2.505e-02 -1.983e-17  1.983e-17  1.253e-06 
 1.530e-03 -1.873e-02 -3.746e-02 -1.965e-17  1.965e-17  1.873e-06 
 1.540e-03 -2.486e-02 -4.972e-02 -1.936e-17  1.936e-17  2.486e-06 
 1.550e-03 -3.089e-02 -6.178e-02 -1.903e-17  1.903e-17  3.089e-06 
 1.560e-03 -3.680e-02 -7.359e-02 -1.859e-17  1.859e-17  3.680e-06 
 1.570e-03 -4.256e-02 -8.512e-02 -1.810e-17  1.810e-17  4.256e-06 
 1.580e-03 -4.816e-02 -9.631e-02 -1.752e-17  1.752e-17  4.815e-06 
 1.590e-03 -5.356e-02 -1.071e-01 -1.689e-17  1.689e-17  5.356e-06 
 1.600e-03 -5.876e-02 -1.175e-01 -1.617e-17  1.617e-17  5.875e-06 
 1.610e-03 -6.372e-02 -1.274e-01 -1.542e-17  1.542e-17  6.372e-06 
 1.620e-03 -6.843e-02 -1.369e-01 -1.457e-17  1.457e-17  6.843e-06 
 1.630e-03 -7.287e-02 -1.457e-01 -1.370e-17  1.370e-17  7.287e-06 
 1.640e-03 -7.702e-02 -1.540e-01 -1.274e-17  1.274e-17  7.702e-06 
 1.650e-03 -8.087e-02 -1.617e-01 -1.176e-17  1.176e-17  8.087e-06 
 1.660e-03 -8.440e-02 -1.688e-01 -1.071e-17  1.071e-17  8.440e-06 
 1.670e-03 -8.760e-02 -1.752e-01 -9.642e-18  9.642e-18  8.760e-06 
 1.680e-03 -9.045e-02 -1.809e-01 -8.509e-18  8.509e-18  9.045e-06 
 1.690e-03 -9.294e-02 -1.859e-01 -7.370e-18  7.370e-18  9.294e-06 
 1.700e-03 -9.507e-02 -1.901e-01 -6.174e-18  6.174e-18  9.507e-06 
 1.710e-03 -9.682e-02 -1.936e-01 -4.981e-18  4.981e-18  9.682e-06 
 1.720e-03 -9.819e-02 -1.964e-01 -3.742e-18  3.742e-18  9.819e-06 
 1.730e-03 -9.917e-02 -1.983e-01 -2.515e-18  2.515e-18  9.917e-06 
 1.740e-03 -9.976e-02 -1.995e-01 -1.250e-18  1.250e-18  9.976e-06 
 1.750e-03 -9.996e-02 -1.999e-01 -8.036e-21  8.036e-21  9.996e-06 
 1.760e-03 -9.976e-02 -1.995e-01  1.261e-18 -1.261e-18  9.976e-06 
 1.770e-03 -9.917e-02 -1.983e-01  2.498e-18 -2.498e-18  9.917e-06 
 1.780e-03 -9.819e-02 -1.964e-01  3.753e-18 -3.753e-18  9.819e-06 
 1.790e-03 -9.682e-02 -1.936e-01  4.965e-18 -4.965e-18  9.682e-06 
 1.800e-03 -9.507e-02 -1.901e-01  6.185e-18 -6.185e-18  9.507e-06 
 1.810e-03 -9.294e-02 -1.859e-01  7.354e-18 -7.354e-18  9.294e-06 
 1.820e-03 -9.045e-02 -1.809e-01  8.520e-18 -8.520e-18  9.045e-06 
 1.830e-03 -8.760e-02 -1.752e-01  9.627e-18 -9.627e-18  8.760e-06 
 1.840e-03 -8.440e-02 -1.688e-01  1.072e-17 -1.072e-17  8.440e-06 
 1.850e-03 -8.087e-02 -1.617e-01  1.175e-17 -1.175e-17  8.087e-06 
 1.860e-03 -7.702e-02 -1.540e-01  1.275e-17 -1.275e-17  7.702e-06 
 1.870e-03 -7.287e-02 -1.457e-01  1.368e-17 -1.368e-17  7.287e-06 
 1.880e-03 -6.843e-02 -1.369e-01  1.458e-17 -1.458e-17  6.843e-06 
 1.890e-03 -6.372e-02 -1.274e-01  1.540e-17 -1.540e-17  6.372e-06 
 1.900e-03 -5.875e-02 -1.175e-01  1.619e-17 -1.619e-17  5.876e-06 
 1.910e-03 -5.356e-02 -1.071e-01  1.688e-17 -1.688e-17  5.356e-06 
 1.920e-03 -4.816e-02 -9.632e-02  1.753e-17 -1.753e-17  4.816e-06 
 1.930e-03 -4.256e-02 -8.512e-02  1.809e-17 -1.809e-17  4.256e-06 
 1.940e-03 -3.680e-02 -7.360e-02  1.860e-17 -1.860e-17  3.680e-06 
 1.950e-03 -3.089e-02 -6.178e-02  1.901e-17 -1.901e-17  3.089e-06 
 1.960e-03 -2.486e-02 -4.972e-02  1.938e-17 -1.938e-17  2.486e-06 
 1.970e-03 -1.873e-02 -3.746e-02  1.964e-17 -1.964e-17  1.873e-06 
 1.980e-03 -1.253e-02 -2.506e-02  1.985e-17 -1.985e-17  1.253e-06 
 1.990e-03 -6.276e-03 -1.256e-02  1.995e-17 -1.995e-17  6.278e-07 
 2.000e-03  3.667e-07 -3.268e-06  2.001e-17 -2.001e-17  1.634e-10 
 2.010e-03  6.277e-03  1.255e-02  1.995e-17 -1.995e-17 -6.275e-07 
 2.020e-03  1.253e-02  2.505e-02  1.985e-17 -1.985e-17 -1.253e-06 
 2.030e-03  1.873e-02  3.746e-02  1.964e-17 -1.964e-17 -1.873e-06 
 2.040e-03  2.486e-02  4.972e-02  1.938e-17 -1.938e-17 -2.486e-06 
 2.050e-03  3.089e-02  6.178e-02  1.901e-17 -1.901e-17 -3.089e-06 
 2.060e-03  3.680e-02  7.359e-02  1.860e-17 -1.860e-17 -3.680e-06 
 2.070e-03  4.256e-02  8.512e-02  1.809e-17 -1.809e-17 -4.256e-06 
 2.080e-03  4.816e-02  9.631e-02  1.753e-17 -1.753e-17 -4.815e-06 
 2.090e-03  5.356e-02  1.071e-01  1.688e-17 -1.688e-17 -5.356e-06 
 2.100e-03  5.876e-02  1.175e-01  1.619e-17 -1.619e-17 -5.875e-06 
 2.110e-03  6.372e-02  1.274e-01  1.540e-17 -1.540e-17 -6.372e-06 
 2.120e-03  6.843e-02  1.369e-01  1.459e-17 -1.459e-17 -6.843e-06 
 2.130e-03  7.287e-02  1.457e-01  1.368e-17 -1.368e-17 -7.287e-06 
 2.140e-03  7.702e-02  1.540e-01  1.276e-17 -1.276e-17 -7.702e-06 
 2.150e-03  8.087e-02  1.617e-01  1.175e-17 -1.175e-17 -8.087e-06 
 2.160e-03  8.440e-02  1.688e-01  1.072e-17 -1.072e-17 -8.440e-06 
 2.170e-03  8.760e-02  1.752e-01  9.629e-18 -9.629e-18 -8.760e-06 
 2.180e-03  9.045e-02  1.809e-01  8.523e-18 -8.523e-18 -9.045e-06 
 2.190e-03  9.294e-02  1.859e-01  7.357e-18 -7.357e-18 -9.294e-06 
 2.200e-03  9.507e-02  1.901e-01  6.188e-18 -6.188e-18 -9.507e-06 
 2.210e-03  9.682e-02  1.936e-01  4.968e-18 -4.968e-18 -9.682e-06 
 2.220e-03  9.819e-02  1.964e-01  3.755e-18 -3.755e-18 -9.819e-06 
 2.230e-03  9.917e-02  1.983e-01  2.501e-18 -2.501e-18 -9.917e-06 
 2.240e-03  9.976e-02  1.995e-01  1.263e-18 -1.263e-18 -9.976e-06 
 2.250e-03  9.996e-02  1.999e-01 -4.970e-21  4.970e-21 -9.996e-06 
 2.260e-03  9.976e-02  1.995e-01 -1.248e-18  1.248e-18 -9.976e-06 
 2.270e-03  9.917e-02  1.983e-01 -2.511e-18  2.511e-18 -9.917e-06 
 2.280e-03  9.819e-02  1.964e-01 -3.740e-18  3.740e-18 -9.819e-06 
 2.290e-03  9.682e-02  1.936e-01 -4.978e-18  4.978e-18 -9.682e-06 
 2.300e-03  9.507e-02  1.901e-01 -6.172e-18  6.172e-18 -9.507e-06 
 2.310e-03  9.294e-02  1.859e-01 -7.367e-18  7.367e-18 -9.294e-06 
 2.320e-03  9.045e-02  1.809e-01 -8.508e-18  8.508e-18 -9.045e-06 
 2.330e-03  8.760e-02  1.752e-01 -9.639e-18  9.639e-18 -8.760e-06 
 2.340e-03  8.440e-02  1.688e-01 -1.071e-17  1.071e-17 -8.440e-06 
 2.350e-03  8.087e-02  1.617e-01 -1.176e-17  1.176e-17 -8.087e-06 
 2.360e-03  7.702e-02  1.540e-01 -1.274e-17  1.274e-17 -7.702e-06 
 2.370e-03  7.287e-02  1.457e-01 -1.370e-17  1.370e-17 -7.287e-06 
 2.380e-03  6.843e-02  1.369e-01 -1.457e-17  1.457e-17 -6.843e-06 
 2.390e-03  6.372e-02  1.274e-01 -1.541e-17  1.541e-17 -6.372e-06 
 2.400e-03  5.875e-02  1.175e-01 -1.617e-17  1.617e-17 -5.876e-06 
 2.410e-03  5.356e-02  1.071e-01 -1.689e-17  1.689e-17 -5.356e-06 
 2.420e-03  4.816e-02  9.632e-02 -1.752e-17  1.752e-17 -4.816e-06 
 2.430e-03  4.256e-02  8.512e-02 -1.810e-17  1.810e-17 -4.256e-06 
 2.440e-03  3.680e-02  7.360e-02 -1.859e-17  1.859e-17 -3.680e-06 
 2.450e-03  3.089e-02  6.178e-02 -1.903e-17  1.903e-17 -3.089e-06 
 2.460e-03  2.486e-02  4.972e-02 -1.936e-17  1.936e-17 -2.486e-06 
 2.470e-03  1.873e-02  3.746e-02 -1.965e-17  1.965e-17 -1.873e-06 
 2.480e-03  1.253e-02  2.506e-02 -1.983e-17  1.983e-17 -1.253e-06 
 2.490e-03  6.276e-03  1.256e-02 -1.997e-17  1.997e-17 -6.278e-07 
 2.500e-03 -3.667e-07  3.265e-06 -1.999e-17  1.999e-17 -1.633e-10 
 2.510e-03 -6.277e-03 -1.255e-02 -1.997e-17  1.997e-17  6.275e-07 
 2.520e-03 -1.253e-02 -2.505e-02 -1.984e-17  1.984e-17  1.253e-06 
 2.530e-03 -1.873e-02 -3.746e-02 -1.965e-17  1.965e-17  1.873e-06 
 2.540e-03 -2.486e-02 -4.972e-02 -1.936e-17  1.936e-17  2.486e-06 
 2.550e-03 -3.089e-02 -6.178e-02 -1.903e-17  1.903e-17  3.089e-06 
 2.560e-03 -3.680e-02 -7.359e-02 -1.859e-17  1.859e-17  3.680e-06 
 2.570e-03 -4.256e-02 -8.512e-02 -1.810e-17  1.810e-17  4.256e-06 
 2.580e-03 -4.816e-02 -9.631e-02 -1.752e-17  1.752e-17  4.815e-06 
 2.590e-03 -5.356e-02 -1.071e-01 -1.689e-17  1.689e-17  5.356e-06 
 2.600e-03 -5.876e-02 -1.175e-01 -1.617e-17  1.617e-17  5.875e-06 
 2.610e-03 -6.372e-02 -1.274e-01 -1.542e-17  1.542e-17  6.372e-06 
 2.620e-03 -6.843e-02 -1.369e-01 -1.457e-17  1.457e-17  6.843e-06 
 2.630e-03 -7.287e-02 -1.457e-01 -1.370e-17  1.370e-17  7.287e-06 
 2.640e-03 -7.702e-02 -1.540e-01 -1.274e-17  1.274e-17  7.702e-06 
 2.650e-03 -8.087e-02 -1.617e-01 -1.176e-17  1.176e-17  8.087e-06 
 2.660e-03 -8.440e-02 -1.688e-01 -1.071e-17  1.071e-17  8.440e-06 
 2.670e-03 -8.760e-02 -1.752e-01 -9.642e-18  9.642e-18  8.760e-06 
 2.680e-03 -9.045e-02 -1.809e-01 -8.510e-18  8.510e-18  9.045e-06 
 2.690e-03 -9.294e-02 -1.859e-01 -7.369e-18  7.369e-18  9.294e-06 
 2.700e-03 -9.507e-02 -1.901e-01 -6.175e-18  6.175e-18  9.507e-06 
 2.710e-03 -9.682e-02 -1.936e-01 -4.981e-18  4.981e-18  9.682e-06 
 2.720e-03 -9.819e-02 -1.964e-01 -3.743e-18  3.743e-18  9.819e-06 
 2.730e-03 -9.917e-02 -1.983e-01 -2.514e-18  2.514e-18  9.917e-06 
 2.740e-03 -9.976e-02 -1.995e-01 -1.251e-18  1.251e-18  9.976e-06 
 2.750e-03 -9.996e-02 -1.999e-01 -7.234e-21  7.234e-21  9.996e-06 
 2.760e-03 -9.976e-02 -1.995e-01  1.260e-18 -1.260e-18  9.976e-06 
 2.770e-03 -9.917e-02 -1.983e-01  2.499e-18 -2.499e-18  9.917e-06 
 2.780e-03 -9.819e-02 -1.964e-01  3.752e-18 -3.752e-18  9.819e-06 
 2.790e-03 -9.682e-02 -1.936e-01  4.966e-18 -4.966e-18  9.682e-06 
 2.800e-03 -9.507e-02 -1.901e-01  6.185e-18 -6.185e-18  9.507e-06 
 2.810e-03 -9.294e-02 -1.859e-01  7.355e-18 -7.355e-18  9.294e-06 
 2.820e-03 -9.045e-02 -1.809e-01  8.520e-18 -8.520e-18  9.045e-06 
 2.830e-03 -8.760e-02 -1.752e-01  9.627e-18 -9.627e-18  8.760e-06 
 2.840e-03 -8.440e-02 -1.688e-01  1.072e-17 -1.072e-17  8.440e-06 
 2.850e-03 -8.087e-02 -1.617e-01  1.175e-17 -1.175e-17  8.087e-06 
 2.860e-03 -7.702e-02 -1.540e-01  1.275e-17 -1.275e-17  7.702e-06 
 2.870e-03 -7.287e-02 -1.457e-01  1.368e-17 -1.368e-17  7.287e-06 
 2.880e-03 -6.843e-02 -1.369e-01  1.458e-17 -1.458e-17  6.843e-06 
 2.890e-03 -6.372e-02 -1.274e-01  1.540e-17 -1.540e-17  6.372e-06 
 2.900e-03 -5.875e-02 -1.175e-01  1.618e-17 -1.618e-17  5.876e-06 
 2.910e-03 -5.356e-02 -1.071e-01  1.688e-17 -1.688e-17  5.356e-06 
 2.920e-03 -4.816e-02 -9.632e-02  1.753e-17 -1.753e-17  4.816e-06 
 2.930e-03 -4.256e-02 -8.512e-02  1.809e-17 -1.809e-17  4.256e-06 
 2.940e-03 -3.680e-02 -7.360e-02  1.860e-17 -1.860e-17  3.680e-06 
 2.950e-03 -3.089e-02 -6.178e-02  1.901e-17 -1.901e-17  3.089e-06 
 2.960e-03 -2.486e-02 -4.972e-02  1.938e-17 -1.938e-17  2.486e-06 
