 time       v(/z0_in)  v(/z0_out) v(/rlgc_in) v(/rlgc_out)
 0.000e+00  0.000e+00  0.000e+00  0.000e+00  0.000e+00 
 1.000e-06  1.000e+00  0.000e+00  1.000e+00  0.000e+00 
 2.000e-06  1.000e+00  0.000e+00  1.000e+00  0.000e+00 
 3.000e-06  1.000e+00  0.000e+00  1.000e+00  0.000e+00 
 4.000e-06  1.000e+00  0.000e+00  1.000e+00  0.000e+00 
 5.000e-06  1.000e+00  0.000e+00  1.000e+00  0.000e+00 
 6.000e-06  1.000e+00  0.000e+00  1.000e+00  0.000e+00 
 7.000e-06  1.000e+00  0.000e+00  1.000e+00  0.000e+00 
 8.000e-06  1.000e+00  0.000e+00  1.000e+00  0.000e+00 
 9.000e-06  1.000e+00  0.000e+00  1.000e+00  0.000e+00 
 1.000e-05  1.000e+00  0.000e+00  1.000e+00  0.000e+00 
 1.100e-05  1.000e+00  0.000e+00  1.000e+00  0.000e+00 
 1.200e-05  1.000e+00  0.000e+00  1.000e+00  0.000e+00 
 1.300e-05  1.000e+00  0.000e+00  1.000e+00  0.000e+00 
 1.400e-05  1.000e+00  0.000e+00  1.000e+00  0.000e+00 
 1.500e-05  1.000e+00  0.000e+00  1.000e+00  0.000e+00 
 1.600e-05  1.000e+00  0.000e+00  1.000e+00  0.000e+00 
 1.700e-05  1.000e+00  0.000e+00  1.000e+00  0.000e+00 
 1.800e-05  1.000e+00  0.000e+00  1.000e+00  0.000e+00 
 1.900e-05  1.000e+00  0.000e+00  1.000e+00  0.000e+00 
 2.000e-05  1.000e+00  0.000e+00  1.000e+00  0.000e+00 
 2.100e-05  1.000e+00  0.000e+00  1.000e+00  0.000e+00 
 2.200e-05  1.000e+00  0.000e+00  1.000e+00  0.000e+00 
 2.300e-05  1.000e+00  0.000e+00  1.000e+00  0.000e+00 
 2.400e-05  1.000e+00  0.000e+00  1.000e+00  0.000e+00 
 2.500e-05  1.000e+00  3.840e-02  1.000e+00  3.840e-02 
 2.600e-05  1.000e+00  9.616e-01  1.000e+00  9.616e-01 
 2.700e-05  1.000e+00  1.000e+00  1.000e+00  1.000e+00 
 2.800e-05  1.000e+00  1.000e+00  1.000e+00  1.000e+00 
 2.900e-05  1.000e+00  1.000e+00  1.000e+00  1.000e+00 
 3.000e-05  1.000e+00  1.000e+00  1.000e+00  1.000e+00 
 3.100e-05  1.000e+00  1.000e+00  1.000e+00  1.000e+00 
 3.200e-05  1.000e+00  1.000e+00  1.000e+00  1.000e+00 
 3.300e-05  1.000e+00  1.000e+00  1.000e+00  1.000e+00 
 3.400e-05  1.000e+00  1.000e+00  1.000e+00  1.000e+00 
 3.500e-05  1.000e+00  1.000e+00  1.000e+00  1.000e+00 
 3.600e-05  1.000e+00  1.000e+00  1.000e+00  1.000e+00 
 3.700e-05  1.000e+00  1.000e+00  1.000e+00  1.000e+00 
 3.800e-05  1.000e+00  1.000e+00  1.000e+00  1.000e+00 
 3.900e-05  1.000e+00  1.000e+00  1.000e+00  1.000e+00 
 4.000e-05  1.000e+00  1.000e+00  1.000e+00  1.000e+00 
 4.100e-05  1.000e+00  1.000e+00  1.000e+00  1.000e+00 
 4.200e-05  1.000e+00  1.000e+00  1.000e+00  1.000e+00 
 4.300e-05  1.000e+00  1.000e+00  1.000e+00  1.000e+00 
 4.400e-05  1.000e+00  1.000e+00  1.000e+00  1.000e+00 
 4.500e-05  1.000e+00  1.000e+00  1.000e+00  1.000e+00 
 4.600e-05  1.000e+00  1.000e+00  1.000e+00  1.000e+00 
 4.700e-05  1.000e+00  1.000e+00  1.000e+00  1.000e+00 
 4.800e-05  1.000e+00  1.000e+00  1.000e+00  1.000e+00 
 4.900e-05  1.000e+00  1.000e+00  1.000e+00  1.000e+00 
 5.000e-05  1.000e+00  1.000e+00  1.000e+00  1.000e+00 
 5.100e-05  1.000e+00  1.000e+00  1.000e+00  1.000e+00 
 5.200e-05  4.263e-14  1.000e+00  4.263e-14  1.000e+00 
 5.300e-05  0.000e+00  1.000e+00  0.000e+00  1.000e+00 
 5.400e-05  0.000e+00  1.000e+00  0.000e+00  1.000e+00 
 5.500e-05  0.000e+00  1.000e+00  0.000e+00  1.000e+00 
 5.600e-05  0.000e+00  1.000e+00  0.000e+00  1.000e+00 
 5.700e-05  0.000e+00  1.000e+00  0.000e+00  1.000e+00 
 5.800e-05  0.000e+00  1.000e+00  0.000e+00  1.000e+00 
 5.900e-05  0.000e+00  1.000e+00  0.000e+00  1.000e+00 
 6.000e-05  0.000e+00  1.000e+00  0.000e+00  1.000e+00 
 6.100e-05  0.000e+00  1.000e+00  0.000e+00  1.000e+00 
 6.200e-05  0.000e+00  1.000e+00  0.000e+00  1.000e+00 
 6.300e-05  0.000e+00  1.000e+00  0.000e+00  1.000e+00 
 6.400e-05  0.000e+00  1.000e+00  0.000e+00  1.000e+00 
 6.500e-05  0.000e+00  1.000e+00  0.000e+00  1.000e+00 
 6.600e-05  0.000e+00  1.000e+00  0.000e+00  1.000e+00 
 6.700e-05  0.000e+00  1.000e+00  0.000e+00  1.000e+00 
 6.800e-05  0.000e+00  1.000e+00  0.000e+00  1.000e+00 
 6.900e-05  0.000e+00  1.000e+00  0.000e+00  1.000e+00 
 7.000e-05  0.000e+00  1.000e+00  0.000e+00  1.000e+00 
 7.100e-05  0.000e+00  1.000e+00  0.000e+00  1.000e+00 
 7.200e-05  0.000e+00  1.000e+00  0.000e+00  1.000e+00 
 7.300e-05  0.000e+00  1.000e+00  0.000e+00  1.000e+00 
 7.400e-05  0.000e+00  1.000e+00  0.000e+00  1.000e+00 
 7.500e-05  0.000e+00  1.000e+00  0.000e+00  1.000e+00 
 7.600e-05  0.000e+00  9.616e-01  0.000e+00  9.616e-01 
 7.700e-05  0.000e+00  3.840e-02  0.000e+00  3.840e-02 
 7.800e-05  0.000e+00  0.000e+00  0.000e+00 -8.674e-17 
 7.900e-05  0.000e+00  0.000e+00  0.000e+00 -8.674e-17 
 8.000e-05  0.000e+00  0.000e+00  0.000e+00 -8.674e-17 
 8.100e-05  0.000e+00  0.000e+00  0.000e+00 -8.674e-17 
 8.200e-05  0.000e+00  0.000e+00  0.000e+00 -8.674e-17 
 8.300e-05  0.000e+00  0.000e+00  0.000e+00 -8.674e-17 
 8.400e-05  0.000e+00  0.000e+00  0.000e+00 -8.674e-17 
 8.500e-05  0.000e+00  0.000e+00  0.000e+00 -8.674e-17 
 8.600e-05  0.000e+00  0.000e+00  0.000e+00 -8.674e-17 
 8.700e-05  0.000e+00  0.000e+00  0.000e+00 -8.674e-17 
 8.800e-05  0.000e+00  0.000e+00  0.000e+00 -8.674e-17 
 8.900e-05  0.000e+00  0.000e+00  0.000e+00 -8.674e-17 
 9.000e-05  0.000e+00  0.000e+00  0.000e+00 -8.674e-17 
 9.100e-05  0.000e+00  0.000e+00  0.000e+00 -8.674e-17 
 9.200e-05  0.000e+00  0.000e+00  0.000e+00 -8.674e-17 
 9.300e-05  0.000e+00  0.000e+00  0.000e+00 -8.674e-17 
 9.400e-05  0.000e+00  0.000e+00  0.000e+00 -8.674e-17 
 9.500e-05  0.000e+00  0.000e+00  0.000e+00 -8.674e-17 
 9.600e-05  0.000e+00  0.000e+00  0.000e+00 -8.674e-17 
 9.700e-05  0.000e+00  0.000e+00  0.000e+00 -8.674e-17 
 9.800e-05  0.000e+00  0.000e+00  0.000e+00 -8.674e-17 
 9.900e-05  0.000e+00  0.000e+00  0.000e+00 -8.674e-17 
 1.000e-04  0.000e+00  0.000e+00  0.000e+00 -9.034e-17 
 1.010e-04  1.000e+00  0.000e+00  1.000e+00 -2.599e-16 
 1.020e-04  1.000e+00  0.000e+00  1.000e+00 -8.674e-17 
 1.030e-04  1.000e+00  0.000e+00  1.000e+00 -8.674e-17 
 1.040e-04  1.000e+00  0.000e+00  1.000e+00 -8.674e-17 
 1.050e-04  1.000e+00  0.000e+00  1.000e+00 -8.674e-17 
 1.060e-04  1.000e+00  0.000e+00  1.000e+00 -8.674e-17 
 1.070e-04  1.000e+00  0.000e+00  1.000e+00 -8.674e-17 
 1.080e-04  1.000e+00  0.000e+00  1.000e+00 -8.674e-17 
 1.090e-04  1.000e+00  0.000e+00  1.000e+00 -8.674e-17 
 1.100e-04  1.000e+00  0.000e+00  1.000e+00 -8.674e-17 
 1.110e-04  1.000e+00  0.000e+00  1.000e+00 -8.674e-17 
 1.120e-04  1.000e+00  0.000e+00  1.000e+00 -8.674e-17 
 1.130e-04  1.000e+00  0.000e+00  1.000e+00 -8.674e-17 
 1.140e-04  1.000e+00  0.000e+00  1.000e+00 -8.674e-17 
 1.150e-04  1.000e+00  0.000e+00  1.000e+00 -8.674e-17 
 1.160e-04  1.000e+00  0.000e+00  1.000e+00 -8.674e-17 
 1.170e-04  1.000e+00  0.000e+00  1.000e+00 -8.674e-17 
 1.180e-04  1.000e+00  0.000e+00  1.000e+00 -8.674e-17 
 1.190e-04  1.000e+00  0.000e+00  1.000e+00 -8.674e-17 
 1.200e-04  1.000e+00  0.000e+00  1.000e+00 -8.674e-17 
 1.210e-04  1.000e+00  0.000e+00  1.000e+00 -8.674e-17 
 1.220e-04  1.000e+00  0.000e+00  1.000e+00 -8.674e-17 
 1.230e-04  1.000e+00  0.000e+00  1.000e+00 -8.674e-17 
 1.240e-04  1.000e+00  0.000e+00  1.000e+00 -8.674e-17 
 1.250e-04  1.000e+00  3.840e-02  1.000e+00  3.840e-02 
 1.260e-04  1.000e+00  9.616e-01  1.000e+00  9.616e-01 
 1.270e-04  1.000e+00  1.000e+00  1.000e+00  1.000e+00 
 1.280e-04  1.000e+00  1.000e+00  1.000e+00  1.000e+00 
 1.290e-04  1.000e+00  1.000e+00  1.000e+00  1.000e+00 
 1.300e-04  1.000e+00  1.000e+00  1.000e+00  1.000e+00 
 1.310e-04  1.000e+00  1.000e+00  1.000e+00  1.000e+00 
 1.320e-04  1.000e+00  1.000e+00  1.000e+00  1.000e+00 
 1.330e-04  1.000e+00  1.000e+00  1.000e+00  1.000e+00 
 1.340e-04  1.000e+00  1.000e+00  1.000e+00  1.000e+00 
 1.350e-04  1.000e+00  1.000e+00  1.000e+00  1.000e+00 
 1.360e-04  1.000e+00  1.000e+00  1.000e+00  1.000e+00 
 1.370e-04  1.000e+00  1.000e+00  1.000e+00  1.000e+00 
 1.380e-04  1.000e+00  1.000e+00  1.000e+00  1.000e+00 
 1.390e-04  1.000e+00  1.000e+00  1.000e+00  1.000e+00 
 1.400e-04  1.000e+00  1.000e+00  1.000e+00  1.000e+00 
 1.410e-04  1.000e+00  1.000e+00  1.000e+00  1.000e+00 
 1.420e-04  1.000e+00  1.000e+00  1.000e+00  1.000e+00 
 1.430e-04  1.000e+00  1.000e+00  1.000e+00  1.000e+00 
 1.440e-04  1.000e+00  1.000e+00  1.000e+00  1.000e+00 
 1.450e-04  1.000e+00  1.000e+00  1.000e+00  1.000e+00 
 1.460e-04  1.000e+00  1.000e+00  1.000e+00  1.000e+00 
 1.470e-04  1.000e+00  1.000e+00  1.000e+00  1.000e+00 
 1.480e-04  1.000e+00  1.000e+00  1.000e+00  1.000e+00 
 1.490e-04  1.000e+00  1.000e+00  1.000e+00  1.000e+00 
 1.500e-04  1.000e+00  1.000e+00  1.000e+00  1.000e+00 
 1.510e-04  1.000e+00  1.000e+00  1.000e+00  1.000e+00 
 1.520e-04  3.126e-13  1.000e+00  3.126e-13  1.000e+00 
 1.530e-04  0.000e+00  1.000e+00  0.000e+00  1.000e+00 
 1.540e-04  0.000e+00  1.000e+00  0.000e+00  1.000e+00 
 1.550e-04  0.000e+00  1.000e+00  0.000e+00  1.000e+00 
 1.560e-04  0.000e+00  1.000e+00  0.000e+00  1.000e+00 
 1.570e-04  0.000e+00  1.000e+00  0.000e+00  1.000e+00 
 1.580e-04  0.000e+00  1.000e+00  0.000e+00  1.000e+00 
 1.590e-04  0.000e+00  1.000e+00  0.000e+00  1.000e+00 
 1.600e-04  0.000e+00  1.000e+00  0.000e+00  1.000e+00 
 1.610e-04  0.000e+00  1.000e+00  0.000e+00  1.000e+00 
 1.620e-04  0.000e+00  1.000e+00  0.000e+00  1.000e+00 
 1.630e-04  0.000e+00  1.000e+00  0.000e+00  1.000e+00 
 1.640e-04  0.000e+00  1.000e+00  0.000e+00  1.000e+00 
 1.650e-04  0.000e+00  1.000e+00  0.000e+00  1.000e+00 
 1.660e-04  0.000e+00  1.000e+00  0.000e+00  1.000e+00 
 1.670e-04  0.000e+00  1.000e+00  0.000e+00  1.000e+00 
 1.680e-04  0.000e+00  1.000e+00  0.000e+00  1.000e+00 
 1.690e-04  0.000e+00  1.000e+00  0.000e+00  1.000e+00 
 1.700e-04  0.000e+00  1.000e+00  0.000e+00  1.000e+00 
 1.710e-04  0.000e+00  1.000e+00  0.000e+00  1.000e+00 
 1.720e-04  0.000e+00  1.000e+00  0.000e+00  1.000e+00 
 1.730e-04  0.000e+00  1.000e+00  0.000e+00  1.000e+00 
 1.740e-04  0.000e+00  1.000e+00  0.000e+00  1.000e+00 
 1.750e-04  0.000e+00  1.000e+00  0.000e+00  1.000e+00 
 1.760e-04  0.000e+00  9.616e-01  0.000e+00  9.616e-01 
 1.770e-04  0.000e+00  3.840e-02  0.000e+00  3.840e-02 
 1.780e-04  0.000e+00  0.000e+00  0.000e+00 -8.674e-17 
 1.790e-04  0.000e+00  0.000e+00  0.000e+00 -8.674e-17 
 1.800e-04  0.000e+00  0.000e+00  0.000e+00 -8.674e-17 
 1.810e-04  0.000e+00  0.000e+00  0.000e+00 -8.674e-17 
 1.820e-04  0.000e+00  0.000e+00  0.000e+00 -8.674e-17 
 1.830e-04  0.000e+00  0.000e+00  0.000e+00 -8.674e-17 
 1.840e-04  0.000e+00  0.000e+00  0.000e+00 -8.674e-17 
 1.850e-04  0.000e+00  0.000e+00  0.000e+00 -8.674e-17 
 1.860e-04  0.000e+00  0.000e+00  0.000e+00 -8.674e-17 
 1.870e-04  0.000e+00  0.000e+00  0.000e+00 -8.674e-17 
 1.880e-04  0.000e+00  0.000e+00  0.000e+00 -8.674e-17 
 1.890e-04  0.000e+00  0.000e+00  0.000e+00 -8.674e-17 
 1.900e-04  0.000e+00  0.000e+00  0.000e+00 -8.674e-17 
 1.910e-04  0.000e+00  0.000e+00  0.000e+00 -8.674e-17 
 1.920e-04  0.000e+00  0.000e+00  0.000e+00 -8.674e-17 
 1.930e-04  0.000e+00  0.000e+00  0.000e+00 -8.674e-17 
 1.940e-04  0.000e+00  0.000e+00  0.000e+00 -8.674e-17 
 1.950e-04  0.000e+00  0.000e+00  0.000e+00 -8.674e-17 
 1.960e-04  0.000e+00  0.000e+00  0.000e+00 -8.674e-17 
 1.970e-04  0.000e+00  0.000e+00  0.000e+00 -8.674e-17 
 1.980e-04  0.000e+00  0.000e+00  0.000e+00 -8.674e-17 
 1.990e-04  0.000e+00  0.000e+00  0.000e+00 -8.674e-17 
 2.000e-04  0.000e+00  0.000e+00  0.000e+00 -8.674e-17 
 2.010e-04  1.000e+00  0.000e+00  1.000e+00 -8.854e-17 
 2.020e-04  1.000e+00  0.000e+00  1.000e+00 -1.700e-16 
 2.030e-04  1.000e+00  0.000e+00  1.000e+00 -8.674e-17 
 2.040e-04  1.000e+00  0.000e+00  1.000e+00 -8.674e-17 
 2.050e-04  1.000e+00  0.000e+00  1.000e+00 -8.674e-17 
 2.060e-04  1.000e+00  0.000e+00  1.000e+00 -8.674e-17 
 2.070e-04  1.000e+00  0.000e+00  1.000e+00 -8.674e-17 
 2.080e-04  1.000e+00  0.000e+00  1.000e+00 -8.674e-17 
 2.090e-04  1.000e+00  0.000e+00  1.000e+00 -8.674e-17 
 2.100e-04  1.000e+00  0.000e+00  1.000e+00 -8.674e-17 
 2.110e-04  1.000e+00  0.000e+00  1.000e+00 -8.674e-17 
 2.120e-04  1.000e+00  0.000e+00  1.000e+00 -8.674e-17 
 2.130e-04  1.000e+00  0.000e+00  1.000e+00 -8.674e-17 
 2.140e-04  1.000e+00  0.000e+00  1.000e+00 -8.674e-17 
 2.150e-04  1.000e+00  0.000e+00  1.000e+00 -8.674e-17 
 2.160e-04  1.000e+00  0.000e+00  1.000e+00 -8.674e-17 
 2.170e-04  1.000e+00  0.000e+00  1.000e+00 -8.674e-17 
 2.180e-04  1.000e+00  0.000e+00  1.000e+00 -8.674e-17 
 2.190e-04  1.000e+00  0.000e+00  1.000e+00 -8.674e-17 
 2.200e-04  1.000e+00  0.000e+00  1.000e+00 -8.674e-17 
 2.210e-04  1.000e+00  0.000e+00  1.000e+00 -8.674e-17 
 2.220e-04  1.000e+00  0.000e+00  1.000e+00 -8.674e-17 
 2.230e-04  1.000e+00  0.000e+00  1.000e+00 -8.674e-17 
 2.240e-04  1.000e+00  0.000e+00  1.000e+00 -8.674e-17 
 2.250e-04  1.000e+00  3.840e-02  1.000e+00  3.840e-02 
 2.260e-04  1.000e+00  9.616e-01  1.000e+00  9.616e-01 
 2.270e-04  1.000e+00  1.000e+00  1.000e+00  1.000e+00 
 2.280e-04  1.000e+00  1.000e+00  1.000e+00  1.000e+00 
 2.290e-04  1.000e+00  1.000e+00  1.000e+00  1.000e+00 
 2.300e-04  1.000e+00  1.000e+00  1.000e+00  1.000e+00 
 2.310e-04  1.000e+00  1.000e+00  1.000e+00  1.000e+00 
 2.320e-04  1.000e+00  1.000e+00  1.000e+00  1.000e+00 
 2.330e-04  1.000e+00  1.000e+00  1.000e+00  1.000e+00 
 2.340e-04  1.000e+00  1.000e+00  1.000e+00  1.000e+00 
 2.350e-04  1.000e+00  1.000e+00  1.000e+00  1.000e+00 
 2.360e-04  1.000e+00  1.000e+00  1.000e+00  1.000e+00 
 2.370e-04  1.000e+00  1.000e+00  1.000e+00  1.000e+00 
 2.380e-04  1.000e+00  1.000e+00  1.000e+00  1.000e+00 
 2.390e-04  1.000e+00  1.000e+00  1.000e+00  1.000e+00 
 2.400e-04  1.000e+00  1.000e+00  1.000e+00  1.000e+00 
 2.410e-04  1.000e+00  1.000e+00  1.000e+00  1.000e+00 
 2.420e-04  1.000e+00  1.000e+00  1.000e+00  1.000e+00 
 2.430e-04  1.000e+00  1.000e+00  1.000e+00  1.000e+00 
 2.440e-04  1.000e+00  1.000e+00  1.000e+00  1.000e+00 
 2.450e-04  1.000e+00  1.000e+00  1.000e+00  1.000e+00 
 2.460e-04  1.000e+00  1.000e+00  1.000e+00  1.000e+00 
 2.470e-04  1.000e+00  1.000e+00  1.000e+00  1.000e+00 
 2.480e-04  1.000e+00  1.000e+00  1.000e+00  1.000e+00 
 2.490e-04  1.000e+00  1.000e+00  1.000e+00  1.000e+00 
 2.500e-04  1.000e+00  1.000e+00  1.000e+00  1.000e+00 
 2.510e-04  1.000e+00  1.000e+00  1.000e+00  1.000e+00 
 2.520e-04  3.695e-13  1.000e+00  3.695e-13  1.000e+00 
 2.530e-04  0.000e+00  1.000e+00  0.000e+00  1.000e+00 
 2.540e-04  0.000e+00  1.000e+00  0.000e+00  1.000e+00 
 2.550e-04  0.000e+00  1.000e+00  0.000e+00  1.000e+00 
 2.560e-04  0.000e+00  1.000e+00  0.000e+00  1.000e+00 
 2.570e-04  0.000e+00  1.000e+00  0.000e+00  1.000e+00 
 2.580e-04  0.000e+00  1.000e+00  0.000e+00  1.000e+00 
 2.590e-04  0.000e+00  1.000e+00  0.000e+00  1.000e+00 
 2.600e-04  0.000e+00  1.000e+00  0.000e+00  1.000e+00 
 2.610e-04  0.000e+00  1.000e+00  0.000e+00  1.000e+00 
 2.620e-04  0.000e+00  1.000e+00  0.000e+00  1.000e+00 
 2.630e-04  0.000e+00  1.000e+00  0.000e+00  1.000e+00 
 2.640e-04  0.000e+00  1.000e+00  0.000e+00  1.000e+00 
 2.650e-04  0.000e+00  1.000e+00  0.000e+00  1.000e+00 
 2.660e-04  0.000e+00  1.000e+00  0.000e+00  1.000e+00 
 2.670e-04  0.000e+00  1.000e+00  0.000e+00  1.000e+00 
 2.680e-04  0.000e+00  1.000e+00  0.000e+00  1.000e+00 
 2.690e-04  0.000e+00  1.000e+00  0.000e+00  1.000e+00 
 2.700e-04  0.000e+00  1.000e+00  0.000e+00  1.000e+00 
 2.710e-04  0.000e+00  1.000e+00  0.000e+00  1.000e+00 
 2.720e-04  0.000e+00  1.000e+00  0.000e+00  1.000e+00 
 2.730e-04  0.000e+00  1.000e+00  0.000e+00  1.000e+00 
 2.740e-04  0.000e+00  1.000e+00  0.000e+00  1.000e+00 
 2.750e-04  0.000e+00  1.000e+00  0.000e+00  1.000e+00 
 2.760e-04  0.000e+00  9.616e-01  0.000e+00  9.616e-01 
 2.770e-04  0.000e+00  3.840e-02  0.000e+00  3.840e-02 
 2.780e-04  0.000e+00  0.000e+00  0.000e+00  6.207e-29 
 2.790e-04  0.000e+00  0.000e+00  0.000e+00 -6.939e-18 
 2.800e-04  0.000e+00  0.000e+00  0.000e+00 -1.665e-16 
 2.810e-04  0.000e+00  0.000e+00  0.000e+00  4.862e-29 
 2.820e-04  0.000e+00  0.000e+00  0.000e+00 -3.469e-18 
 2.830e-04  0.000e+00  0.000e+00  0.000e+00 -8.327e-17 
 2.840e-04  0.000e+00  0.000e+00  0.000e+00  2.483e-29 
 2.850e-04  0.000e+00  0.000e+00  0.000e+00  0.000e+00 
 2.860e-04  0.000e+00  0.000e+00  0.000e+00  0.000e+00 
 2.870e-04  0.000e+00  0.000e+00  0.000e+00  0.000e+00 
 2.880e-04  0.000e+00  0.000e+00  0.000e+00  0.000e+00 
 2.890e-04  0.000e+00  0.000e+00  0.000e+00 -1.034e-30 
 2.900e-04  0.000e+00  0.000e+00  0.000e+00 -3.469e-18 
 2.910e-04  0.000e+00  0.000e+00  0.000e+00 -8.327e-17 
 2.920e-04  0.000e+00  0.000e+00  0.000e+00  2.276e-29 
 2.930e-04  0.000e+00  0.000e+00  0.000e+00 -6.939e-18 
 2.940e-04  0.000e+00  0.000e+00  0.000e+00 -1.735e-16 
 2.950e-04  0.000e+00  0.000e+00  0.000e+00 -1.735e-16 
 2.960e-04  0.000e+00  0.000e+00  0.000e+00 -1.735e-16 
 2.970e-04  0.000e+00  0.000e+00  0.000e+00 -1.735e-16 
 2.980e-04  0.000e+00  0.000e+00  0.000e+00 -1.735e-16 
 2.990e-04  0.000e+00  0.000e+00  0.000e+00 -1.735e-16 
 3.000e-04  8.527e-13  0.000e+00  8.527e-13 -1.717e-16 
 3.010e-04  1.000e+00  0.000e+00  1.000e+00 -8.507e-17 
 3.020e-04  1.000e+00  0.000e+00  1.000e+00 -8.327e-17 
 3.030e-04  1.000e+00  0.000e+00  1.000e+00 -3.471e-18 
 3.040e-04  1.000e+00  0.000e+00  1.000e+00 -9.021e-17 
 3.050e-04  1.000e+00  0.000e+00  1.000e+00 -1.700e-16 
 3.060e-04  1.000e+00  0.000e+00  1.000e+00 -8.674e-17 
 3.070e-04  1.000e+00  0.000e+00  1.000e+00 -8.674e-17 
 3.080e-04  1.000e+00  0.000e+00  1.000e+00 -8.674e-17 
 3.090e-04  1.000e+00  0.000e+00  1.000e+00 -8.674e-17 
 3.100e-04  1.000e+00  0.000e+00  1.000e+00 -8.674e-17 
 3.110e-04  1.000e+00  0.000e+00  1.000e+00 -8.674e-17 
 3.120e-04  1.000e+00  0.000e+00  1.000e+00 -8.674e-17 
 3.130e-04  1.000e+00  0.000e+00  1.000e+00 -8.674e-17 
 3.140e-04  1.000e+00  0.000e+00  1.000e+00 -8.674e-17 
 3.150e-04  1.000e+00  0.000e+00  1.000e+00 -8.674e-17 
 3.160e-04  1.000e+00  0.000e+00  1.000e+00 -8.674e-17 
 3.170e-04  1.000e+00  0.000e+00  1.000e+00 -8.674e-17 
 3.180e-04  1.000e+00  0.000e+00  1.000e+00 -9.021e-17 
 3.190e-04  1.000e+00  0.000e+00  1.000e+00 -1.735e-16 
 3.200e-04  1.000e+00  0.000e+00  1.000e+00 -1.700e-16 
 3.210e-04  1.000e+00  0.000e+00  1.000e+00 -8.674e-17 
 3.220e-04  1.000e+00  0.000e+00  1.000e+00 -8.674e-17 
 3.230e-04  1.000e+00  0.000e+00  1.000e+00 -8.674e-17 
 3.240e-04  1.000e+00  0.000e+00  1.000e+00 -8.674e-17 
 3.250e-04  1.000e+00  3.841e-02  1.000e+00  3.841e-02 
 3.260e-04  1.000e+00  9.616e-01  1.000e+00  9.616e-01 
 3.270e-04  1.000e+00  1.000e+00  1.000e+00  1.000e+00 
 3.280e-04  1.000e+00  1.000e+00  1.000e+00  1.000e+00 
 3.290e-04  1.000e+00  1.000e+00  1.000e+00  1.000e+00 
 3.300e-04  1.000e+00  1.000e+00  1.000e+00  1.000e+00 
 3.310e-04  1.000e+00  1.000e+00  1.000e+00  1.000e+00 
 3.320e-04  1.000e+00  1.000e+00  1.000e+00  1.000e+00 
 3.330e-04  1.000e+00  1.000e+00  1.000e+00  1.000e+00 
 3.340e-04  1.000e+00  1.000e+00  1.000e+00  1.000e+00 
 3.350e-04  1.000e+00  1.000e+00  1.000e+00  1.000e+00 
 3.360e-04  1.000e+00  1.000e+00  1.000e+00  1.000e+00 
 3.370e-04  1.000e+00  1.000e+00  1.000e+00  1.000e+00 
 3.380e-04  1.000e+00  1.000e+00  1.000e+00  1.000e+00 
 3.390e-04  1.000e+00  1.000e+00  1.000e+00  1.000e+00 
 3.400e-04  1.000e+00  1.000e+00  1.000e+00  1.000e+00 
 3.410e-04  1.000e+00  1.000e+00  1.000e+00  1.000e+00 
 3.420e-04  1.000e+00  1.000e+00  1.000e+00  1.000e+00 
 3.430e-04  1.000e+00  1.000e+00  1.000e+00  1.000e+00 
 3.440e-04  1.000e+00  1.000e+00  1.000e+00  1.000e+00 
 3.450e-04  1.000e+00  1.000e+00  1.000e+00  1.000e+00 
 3.460e-04  1.000e+00  1.000e+00  1.000e+00  1.000e+00 
 3.470e-04  1.000e+00  1.000e+00  1.000e+00  1.000e+00 
 3.480e-04  1.000e+00  1.000e+00  1.000e+00  1.000e+00 
 3.490e-04  1.000e+00  1.000e+00  1.000e+00  1.000e+00 
 3.500e-04  1.000e+00  1.000e+00  1.000e+00  1.000e+00 
 3.510e-04  1.000e+00  1.000e+00  1.000e+00  1.000e+00 
 3.520e-04  0.000e+00  1.000e+00  0.000e+00  1.000e+00 
 3.530e-04  0.000e+00  1.000e+00  0.000e+00  1.000e+00 
 3.540e-04  0.000e+00  1.000e+00  0.000e+00  1.000e+00 
 3.550e-04  0.000e+00  1.000e+00  0.000e+00  1.000e+00 
